(1682575607.334063) can0 19A#3900
(1682575607.337669) can0 18B#3900
(1682575607.339696) can0 198#3000
(1682575607.341220) can0 193#6C00
(1682575607.341228) can0 194#3600
(1682575607.344639) can0 196#2E00
(1682575607.346345) can0 195#1C00
(1682575607.348151) can0 192#1D00
(1682575607.349285) can0 18E#2500
(1682575607.349482) can0 18D#3B00
(1682575607.354015) can0 18A#3600
(1682575607.361110) can0 197#3800
(1682575607.367397) can0 18F#2800
(1682575607.372289) can0 190#3000
(1682575607.374746) can0 199#6D00
(1682575607.374754) can0 191#3A00
(1682575607.375935) can0 18C#4C00
(1682575607.384506) can0 19A#3800
(1682575607.387697) can0 18B#3700
(1682575607.389628) can0 198#3400
(1682575607.391433) can0 193#5900
(1682575607.391444) can0 194#3700
(1682575607.394778) can0 196#2A00
(1682575607.396538) can0 195#2900
(1682575607.398333) can0 192#1700
(1682575607.399438) can0 18E#2600
(1682575607.399678) can0 18D#3800
(1682575607.404264) can0 18A#2500
(1682575607.411123) can0 197#3600
(1682575607.417497) can0 18F#2A00
(1682575607.422364) can0 190#3100
(1682575607.424892) can0 199#6C00
(1682575607.424902) can0 191#6900
(1682575607.424931) can0 711#05
(1682575607.425889) can0 18C#4F00
(1682575607.434528) can0 19A#3700
(1682575607.437950) can0 18B#6800
(1682575607.439683) can0 198#3800
(1682575607.441498) can0 193#2300
(1682575607.441507) can0 194#1E00
(1682575607.444888) can0 196#2800
(1682575607.446599) can0 195#2B00
(1682575607.448595) can0 192#3000
(1682575607.449413) can0 18E#2800
(1682575607.449820) can0 18D#3600
(1682575607.450157) can0 70D#05
(1682575607.454087) can0 18A#3700
(1682575607.461230) can0 197#2200
(1682575607.467526) can0 18F#2800
(1682575607.472346) can0 190#3200
(1682575607.475095) can0 199#3800
(1682575607.475104) can0 191#3A00
(1682575607.475898) can0 18C#5100
(1682575607.484959) can0 19A#3400
(1682575607.488085) can0 18B#5D00
(1682575607.489706) can0 198#3B00
(1682575607.491488) can0 193#2200
(1682575607.491497) can0 194#1E00
(1682575607.491966) can0 714#05
(1682575607.495071) can0 196#2600
(1682575607.496873) can0 195#2E00
(1682575607.497078) can0 715#05
(1682575607.498593) can0 192#1400
(1682575607.499397) can0 18E#2900
(1682575607.499981) can0 18D#3000
(1682575607.504379) can0 18A#2400
(1682575607.504613) can0 70A#05
(1682575607.511398) can0 197#1F00
(1682575607.517605) can0 18F#2900
(1682575607.522400) can0 190#3100
(1682575607.524937) can0 199#3700
(1682575607.525000) can0 191#3800
(1682575607.525348) can0 719#05
(1682575607.525783) can0 18C#5500
(1682575607.535345) can0 19A#3700
(1682575607.538364) can0 18B#5B00
(1682575607.539880) can0 198#4000
(1682575607.541478) can0 193#2500
(1682575607.541598) can0 194#2200
(1682575607.545250) can0 196#2400
(1682575607.547094) can0 195#2D00
(1682575607.548751) can0 192#3100
(1682575607.549395) can0 18E#2A00
(1682575607.550137) can0 18D#3400
(1682575607.554423) can0 18A#2200
(1682575607.561227) can0 197#3600
(1682575607.567515) can0 18F#2900
(1682575607.567965) can0 70F#05
(1682575607.572578) can0 190#3200
(1682575607.575400) can0 199#6800
(1682575607.575410) can0 191#6400
(1682575607.575812) can0 18C#5500
(1682575607.585541) can0 19A#3D00
(1682575607.588455) can0 18B#5900
(1682575607.590116) can0 198#4300
(1682575607.592039) can0 193#2800
(1682575607.592049) can0 194#2300
(1682575607.595490) can0 196#2200
(1682575607.597346) can0 195#2400
(1682575607.599433) can0 192#3000
(1682575607.599443) can0 18E#2A00
(1682575607.600423) can0 18D#3100
(1682575607.604776) can0 18A#3800
(1682575607.611431) can0 197#2200
(1682575607.617973) can0 18F#2A00
(1682575607.622422) can0 190#3300
(1682575607.625363) can0 199#6700
(1682575607.625374) can0 191#3600
(1682575607.625812) can0 18C#5500
(1682575607.636065) can0 19A#3A00
(1682575607.638304) can0 18B#6200
(1682575607.640041) can0 198#4700
(1682575607.642004) can0 193#2C00
(1682575607.642015) can0 194#2500
(1682575607.645616) can0 196#2100
(1682575607.647431) can0 195#2900
(1682575607.649349) can0 192#2F00
(1682575607.649447) can0 18E#2C00
(1682575607.650596) can0 18D#3100
(1682575607.655074) can0 18A#2200
(1682575607.661625) can0 197#3E00
(1682575607.668009) can0 18F#2900
(1682575607.672551) can0 190#3000
(1682575607.675583) can0 199#6400
(1682575607.675593) can0 191#6200
(1682575607.675809) can0 18C#5600
(1682575607.686117) can0 19A#3700
(1682575607.688545) can0 18B#5500
(1682575607.688813) can0 70B#05
(1682575607.689969) can0 198#4B00
(1682575607.692053) can0 193#3000
(1682575607.692063) can0 194#2800
(1682575607.695770) can0 196#2000
(1682575607.697714) can0 195#2700
(1682575607.698713) can0 18E#2F00
(1682575607.699331) can0 192#2E00
(1682575607.699582) can0 712#05
(1682575607.700912) can0 18D#2D00
(1682575607.705216) can0 18A#4700
(1682575607.711744) can0 197#2300
(1682575607.718068) can0 18F#2900
(1682575607.722485) can0 190#3100
(1682575607.724665) can0 191#6000
(1682575607.725487) can0 199#6300
(1682575607.725816) can0 18C#5800
(1682575607.736383) can0 19A#2A00
(1682575607.738528) can0 18B#5400
(1682575607.738673) can0 198#4F00
(1682575607.741811) can0 193#3100
(1682575607.741864) can0 194#2A00
(1682575607.745707) can0 196#1E00
(1682575607.747593) can0 195#2400
(1682575607.748612) can0 18E#3000
(1682575607.749652) can0 192#2C00
(1682575607.751067) can0 18D#3000
(1682575607.755214) can0 18A#4700
(1682575607.761603) can0 197#2400
(1682575607.768214) can0 18F#2A00
(1682575607.772550) can0 190#3200
(1682575607.772971) can0 710#05
(1682575607.775082) can0 191#5E00
(1682575607.775578) can0 199#3A00
(1682575607.775812) can0 18C#5900
(1682575607.786612) can0 19A#3600
(1682575607.789109) can0 18B#5100
(1682575607.789119) can0 198#4700
(1682575607.792306) can0 193#3300
(1682575607.792316) can0 194#2D00
(1682575607.796162) can0 196#3C00
(1682575607.798125) can0 195#2600
(1682575607.798470) can0 18E#3000
(1682575607.800049) can0 192#2B00
(1682575607.801197) can0 18D#3800
(1682575607.805262) can0 18A#4700
(1682575607.811840) can0 197#2400
(1682575607.812016) can0 717#05
(1682575607.817718) can0 18F#2A00
(1682575607.822706) can0 190#3400
(1682575607.825188) can0 191#5D00
(1682575607.825698) can0 199#6000
(1682575607.825813) can0 18C#5A00
(1682575607.837118) can0 19A#3300
(1682575607.839103) can0 198#5700
(1682575607.839114) can0 18B#4E00
(1682575607.841244) can0 193#3600
(1682575607.842096) can0 194#3000
(1682575607.846184) can0 196#2300
(1682575607.848148) can0 195#2200
(1682575607.848505) can0 18E#3300
(1682575607.850098) can0 192#2A00
(1682575607.851345) can0 18D#3800
(1682575607.855445) can0 18A#4A00
(1682575607.861724) can0 197#2600
(1682575607.868314) can0 18F#2900
(1682575607.872903) can0 190#3200
(1682575607.875289) can0 191#5C00
(1682575607.875794) can0 18C#5A00
(1682575607.875819) can0 199#5F00
(1682575607.887265) can0 19A#3000
(1682575607.889135) can0 198#5B00
(1682575607.889145) can0 18B#4E00
(1682575607.891415) can0 193#3900
(1682575607.892370) can0 194#3200
(1682575607.896269) can0 196#3A00
(1682575607.896447) can0 716#05
(1682575607.897265) can0 195#2100
(1682575607.898638) can0 18E#3400
(1682575607.900356) can0 192#2900
(1682575607.900367) can0 18D#2900
(1682575607.905476) can0 18A#3600
(1682575607.911970) can0 197#2900
(1682575607.917953) can0 18F#2900
(1682575607.922842) can0 190#3400
(1682575607.925453) can0 191#5A00
(1682575607.925810) can0 18C#5B00
(1682575607.925939) can0 199#5C00
(1682575607.937118) can0 19A#3000
(1682575607.938760) can0 198#5F00
(1682575607.938941) can0 18B#6400
(1682575607.941262) can0 193#3D00
(1682575607.942247) can0 194#3600
(1682575607.946399) can0 196#3900
(1682575607.947463) can0 195#2000
(1682575607.948745) can0 18E#3400
(1682575607.950198) can0 192#2A00
(1682575607.950244) can0 18D#4100
(1682575607.955258) can0 18A#3900
(1682575607.961952) can0 197#2800
(1682575607.968062) can0 18F#2A00
(1682575607.972986) can0 190#3600
(1682575607.974829) can0 18C#3A00
(1682575607.975042) can0 191#5900
(1682575607.976058) can0 199#5B00
(1682575607.987523) can0 19A#2E00
(1682575607.989176) can0 198#6300
(1682575607.989187) can0 18B#4A00
(1682575607.991362) can0 193#4000
(1682575607.992458) can0 194#3700
(1682575607.996544) can0 196#3800
(1682575607.997507) can0 195#1E00
(1682575607.998748) can0 18E#3600
(1682575608.000551) can0 18D#3100
(1682575608.000561) can0 192#2700
(1682575608.004607) can0 18A#4100
(1682575608.011922) can0 197#2A00
(1682575608.017989) can0 18F#2A00
(1682575608.023012) can0 190#3600
(1682575608.025230) can0 18C#3800
(1682575608.025240) can0 191#5800
(1682575608.025247) can0 199#3B00
(1682575608.038087) can0 19A#2B00
(1682575608.039040) can0 198#4200
(1682575608.039169) can0 18B#4900
(1682575608.041328) can0 193#4300
(1682575608.041363) can0 194#3900
(1682575608.046847) can0 196#3600
(1682575608.047809) can0 195#1F00
(1682575608.048628) can0 18E#3600
(1682575608.049209) can0 70E#05
(1682575608.049595) can0 192#3600
(1682575608.050900) can0 18D#4300
(1682575608.054932) can0 18A#3600
(1682575608.062048) can0 197#2D00
(1682575608.068479) can0 18F#2A00
(1682575608.073150) can0 190#3600
(1682575608.075334) can0 18C#5E00
(1682575608.075344) can0 191#5600
(1682575608.075347) can0 199#5900
(1682575608.088277) can0 19A#2900
(1682575608.088287) can0 71A#05
(1682575608.088845) can0 198#6B00
(1682575608.089283) can0 18B#4700
(1682575608.089399) can0 718#05
(1682575608.091208) can0 193#4600
(1682575608.091472) can0 194#3D00
(1682575608.097002) can0 196#3500
(1682575608.097969) can0 195#1C00
(1682575608.098872) can0 18E#3400
(1682575608.100234) can0 192#2600
(1682575608.100644) can0 18D#4000
(1682575608.105052) can0 18A#4B00
(1682575608.112022) can0 197#2D00
(1682575608.117380) can0 18F#2900
(1682575608.122710) can0 190#3700
(1682575608.125232) can0 18C#3A00
(1682575608.125404) can0 191#5500
(1682575608.125413) can0 199#5700
(1682575608.138125) can0 19A#2800
(1682575608.138992) can0 198#6E00
(1682575608.139410) can0 18B#5C00
(1682575608.141374) can0 193#4700
(1682575608.141565) can0 194#4000
(1682575608.147110) can0 196#3400
(1682575608.148352) can0 195#1B00
(1682575608.148700) can0 18E#3A00
(1682575608.150004) can0 192#3100
(1682575608.151195) can0 18D#3F00
(1682575608.154870) can0 18A#4A00
(1682575608.162059) can0 197#2F00
(1682575608.167367) can0 18F#2900
(1682575608.173239) can0 190#3700
(1682575608.175229) can0 18C#5D00
(1682575608.175511) can0 191#5400
(1682575608.175530) can0 199#3700
(1682575608.188511) can0 19A#2400
(1682575608.188521) can0 18B#9200
(1682575608.188856) can0 198#3600
(1682575608.191610) can0 193#4C00
(1682575608.191621) can0 194#3800
(1682575608.197317) can0 196#3300
(1682575608.198439) can0 195#1C00
(1682575608.198738) can0 18E#3B00
(1682575608.200462) can0 192#3000
(1682575608.200932) can0 18D#3F00
(1682575608.205405) can0 18A#3C00
(1682575608.212301) can0 197#2F00
(1682575608.217498) can0 18F#2900
(1682575608.223200) can0 190#3600
(1682575608.225213) can0 18C#5F00
(1682575608.225605) can0 191#5200
(1682575608.225628) can0 199#5500
(1682575608.238966) can0 18B#5900
(1682575608.238976) can0 19A#2300
(1682575608.238979) can0 198#5F00
(1682575608.241576) can0 193#4F00
(1682575608.241715) can0 194#4500
(1682575608.247434) can0 196#3100
(1682575608.248610) can0 195#1D00
(1682575608.248745) can0 18E#3600
(1682575608.250565) can0 192#2400
(1682575608.251063) can0 18D#2900
(1682575608.255374) can0 18A#4B00
(1682575608.262104) can0 197#2F00
(1682575608.267426) can0 18F#2B00
(1682575608.273229) can0 190#3600
(1682575608.275222) can0 18C#4300
(1682575608.275732) can0 191#5100
(1682575608.275752) can0 199#5300
(1682575608.288630) can0 18B#4000
(1682575608.288882) can0 19A#2300
(1682575608.288901) can0 198#5800
(1682575608.291668) can0 193#5200
(1682575608.291808) can0 194#4900
(1682575608.291970) can0 713#05
(1682575608.296589) can0 196#3000
(1682575608.298745) can0 195#1B00
(1682575608.298756) can0 18E#3600
(1682575608.300678) can0 192#2B00
(1682575608.301232) can0 18D#3B00
(1682575608.305485) can0 18A#4B00
(1682575608.312350) can0 197#3100
(1682575608.317506) can0 18F#2C00
(1682575608.323252) can0 190#3600
(1682575608.325212) can0 18C#4200
(1682575608.325410) can0 70C#05
(1682575608.325835) can0 191#5000
(1682575608.325862) can0 199#5200
(1682575608.338135) can0 19A#8400
(1682575608.338733) can0 18B#3F00
(1682575608.338884) can0 198#3700
(1682575608.341698) can0 193#5600
(1682575608.341816) can0 194#3600
(1682575608.346540) can0 196#2F00
(1682575608.348922) can0 195#1C00
(1682575608.348932) can0 18E#3900
(1682575608.350691) can0 192#2900
(1682575608.351452) can0 18D#3600
(1682575608.355381) can0 18A#4C00
(1682575608.361284) can0 197#3300
(1682575608.367571) can0 18F#2B00
(1682575608.372097) can0 190#3600
(1682575608.375216) can0 18C#6100
(1682575608.376330) can0 191#4F00
(1682575608.376340) can0 199#5100
(1682575608.388526) can0 19A#8400
(1682575608.388873) can0 18B#9200
(1682575608.388899) can0 198#3900
(1682575608.391983) can0 193#5900
(1682575608.391993) can0 194#3900
(1682575608.396879) can0 196#2E00
(1682575608.399217) can0 18E#3600
(1682575608.399227) can0 195#1800
(1682575608.401268) can0 192#3100
(1682575608.401520) can0 18D#3A00
(1682575608.405512) can0 18A#4300
(1682575608.411539) can0 197#3400
(1682575608.417463) can0 18F#2A00
(1682575608.422009) can0 190#3700
(1682575608.425227) can0 18C#3600
(1682575608.426077) can0 191#4E00
(1682575608.426087) can0 199#4F00
(1682575608.426273) can0 711#05
(1682575608.439096) can0 19A#8400
(1682575608.439106) can0 198#3C00
(1682575608.439111) can0 18B#3900
(1682575608.442147) can0 193#5B00
(1682575608.442157) can0 194#3800
(1682575608.446948) can0 196#2C00
(1682575608.449249) can0 18E#3E00
(1682575608.449260) can0 195#1C00
(1682575608.451380) can0 192#3000
(1682575608.451648) can0 18D#3600
(1682575608.451974) can0 70D#05
(1682575608.455568) can0 18A#3800
(1682575608.461485) can0 197#3500
(1682575608.467682) can0 18F#2C00
(1682575608.472486) can0 190#3700
(1682575608.474857) can0 18C#3100
(1682575608.476375) can0 191#4C00
(1682575608.476386) can0 199#3C00
(1682575608.489364) can0 19A#8200
(1682575608.489375) can0 198#1C00
(1682575608.489380) can0 18B#9200
(1682575608.492227) can0 193#5A00
(1682575608.492237) can0 194#4400
(1682575608.492519) can0 714#05
(1682575608.497041) can0 196#2A00
(1682575608.499276) can0 18E#3D00
(1682575608.499287) can0 195#1600
(1682575608.499542) can0 715#05
(1682575608.501384) can0 192#2F00
(1682575608.501799) can0 18D#3700
(1682575608.506038) can0 18A#4D00
(1682575608.506048) can0 70A#05
(1682575608.511642) can0 197#3000
(1682575608.517503) can0 18F#2800
(1682575608.521970) can0 190#3600
(1682575608.524796) can0 18C#4F00
(1682575608.526256) can0 191#4B00
(1682575608.526320) can0 199#4D00
(1682575608.527046) can0 719#05
(1682575608.539034) can0 198#1D00
(1682575608.539054) can0 19A#7400
(1682575608.539198) can0 18B#9200
(1682575608.541752) can0 193#5200
(1682575608.542194) can0 194#3700
(1682575608.547066) can0 196#2900
(1682575608.548879) can0 18E#2200
(1682575608.549437) can0 195#1A00
(1682575608.551371) can0 192#2F00
(1682575608.551887) can0 18D#3600
(1682575608.555686) can0 18A#4700
(1682575608.561572) can0 197#3600
(1682575608.567984) can0 18F#2900
(1682575608.568021) can0 70F#05
(1682575608.572382) can0 190#3700
(1682575608.574799) can0 18C#3600
(1682575608.576596) can0 191#4A00
(1682575608.576601) can0 199#4B00
(1682575608.589446) can0 198#2100
(1682575608.589455) can0 18B#5500
(1682575608.589458) can0 19A#7A00
(1682575608.592240) can0 193#5800
(1682575608.592250) can0 194#4800
(1682575608.597384) can0 196#2800
(1682575608.599102) can0 18E#3600
(1682575608.599559) can0 195#1500
(1682575608.602048) can0 192#2D00
(1682575608.602058) can0 18D#3600
(1682575608.606121) can0 18A#4F00
(1682575608.611763) can0 197#3800
(1682575608.618066) can0 18F#2A00
(1682575608.622135) can0 190#3700
(1682575608.625215) can0 18C#3700
(1682575608.626694) can0 191#4900
(1682575608.626705) can0 199#4A00
(1682575608.639503) can0 198#2300
(1682575608.639514) can0 18B#9200
(1682575608.639569) can0 19A#7700
(1682575608.641967) can0 193#5800
(1682575608.642355) can0 194#4C00
(1682575608.647509) can0 196#2700
(1682575608.649357) can0 18E#3F00
(1682575608.649748) can0 195#3000
(1682575608.652184) can0 192#2C00
(1682575608.652194) can0 18D#3300
(1682575608.656018) can0 18A#4E00
(1682575608.661889) can0 197#3600
(1682575608.668196) can0 18F#2B00
(1682575608.672372) can0 190#3700
(1682575608.675195) can0 18C#3700
(1682575608.677040) can0 191#4700
(1682575608.677050) can0 199#4800
(1682575608.689493) can0 198#2200
(1682575608.689503) can0 18B#9200
(1682575608.689852) can0 19A#6E00
(1682575608.689911) can0 70B#05
(1682575608.692468) can0 193#5700
(1682575608.692479) can0 194#4B00
(1682575608.697790) can0 196#2500
(1682575608.697984) can0 18E#3C00
(1682575608.700312) can0 195#3A00
(1682575608.702089) can0 192#2A00
(1682575608.702250) can0 712#05
(1682575608.702376) can0 18D#3200
(1682575608.706117) can0 18A#5000
(1682575608.711887) can0 197#2400
(1682575608.718212) can0 18F#2B00
(1682575608.722509) can0 190#3700
(1682575608.725210) can0 18C#4000
(1682575608.725740) can0 191#4600
(1682575608.727233) can0 199#4700
(1682575608.738508) can0 198#2200
(1682575608.740034) can0 18B#5000
(1682575608.740069) can0 19A#7000
(1682575608.742114) can0 193#5600
(1682575608.742512) can0 194#4800
(1682575608.747906) can0 196#2500
(1682575608.747964) can0 18E#2500
(1682575608.750110) can0 195#3700
(1682575608.752394) can0 192#2900
(1682575608.752520) can0 18D#3000
(1682575608.756394) can0 18A#4C00
(1682575608.761938) can0 197#3600
(1682575608.767767) can0 18F#2A00
(1682575608.772379) can0 190#3800
(1682575608.772722) can0 710#05
(1682575608.775200) can0 18C#6C00
(1682575608.775951) can0 191#4500
(1682575608.777354) can0 199#4600
(1682575608.788408) can0 198#2200
(1682575608.790248) can0 18B#4F00
(1682575608.790305) can0 19A#6A00
(1682575608.792396) can0 193#5600
(1682575608.792602) can0 194#4800
(1682575608.798075) can0 196#2400
(1682575608.798086) can0 18E#3C00
(1682575608.800509) can0 195#3500
(1682575608.802599) can0 192#2900
(1682575608.802609) can0 18D#3000
(1682575608.806515) can0 18A#4B00
(1682575608.812020) can0 197#2700
(1682575608.812266) can0 717#05
(1682575608.817825) can0 18F#2D00
(1682575608.822284) can0 190#3800
(1682575608.825211) can0 18C#4600
(1682575608.826003) can0 191#4400
(1682575608.827391) can0 199#4400
(1682575608.838180) can0 198#2600
(1682575608.839861) can0 18B#9200
(1682575608.840612) can0 19A#6600
(1682575608.841158) can0 193#5500
(1682575608.842679) can0 194#4800
(1682575608.848227) can0 196#2400
(1682575608.848237) can0 18E#2700
(1682575608.850687) can0 195#3400
(1682575608.852301) can0 18D#2F00
(1682575608.852497) can0 192#2F00
(1682575608.856657) can0 18A#5100
(1682575608.862053) can0 197#2A00
(1682575608.868361) can0 18F#2D00
(1682575608.872420) can0 190#3700
(1682575608.874916) can0 18C#4700
(1682575608.876384) can0 191#4200
(1682575608.877346) can0 199#4300
(1682575608.888516) can0 198#2700
(1682575608.890089) can0 18B#9200
(1682575608.891083) can0 19A#6400
(1682575608.891230) can0 193#5400
(1682575608.893153) can0 194#4800
(1682575608.898566) can0 18E#2800
(1682575608.898582) can0 196#2200
(1682575608.898592) can0 716#05
(1682575608.899967) can0 195#3100
(1682575608.902117) can0 18D#2F00
(1682575608.902686) can0 192#3900
(1682575608.906629) can0 18A#4E00
(1682575608.911867) can0 197#3000
(1682575608.917946) can0 18F#2B00
(1682575608.922260) can0 190#3700
(1682575608.924758) can0 18C#4B00
(1682575608.926121) can0 191#4100
(1682575608.927250) can0 199#4200
(1682575608.938261) can0 198#2C00
(1682575608.940416) can0 18B#9200
(1682575608.941392) can0 19A#5F00
(1682575608.941399) can0 193#5400
(1682575608.943101) can0 194#4700
(1682575608.948094) can0 18E#2900
(1682575608.948216) can0 196#2400
(1682575608.950102) can0 195#2F00
(1682575608.952388) can0 18D#2E00
(1682575608.952879) can0 192#2D00
(1682575608.957030) can0 18A#5200
(1682575608.962057) can0 197#2C00
(1682575608.968504) can0 18F#2A00
(1682575608.972504) can0 190#3900
(1682575608.974103) can0 18C#3600
(1682575608.976449) can0 191#4000
(1682575608.977577) can0 199#4000
(1682575608.988406) can0 198#2800
(1682575608.990195) can0 18B#9200
(1682575608.991578) can0 193#5300
(1682575608.991589) can0 19A#5C00
(1682575608.993052) can0 194#4600
(1682575608.998518) can0 18E#3C00
(1682575608.998528) can0 196#2200
(1682575609.000411) can0 195#2F00
(1682575609.002497) can0 18D#2700
(1682575609.003052) can0 192#2400
(1682575609.006099) can0 18A#5200
(1682575609.012124) can0 197#3000
(1682575609.018131) can0 18F#2A00
(1682575609.022573) can0 190#3700
(1682575609.024307) can0 18C#3700
(1682575609.026701) can0 191#3E00
(1682575609.026711) can0 199#3F00
(1682575609.038530) can0 198#2C00
(1682575609.040502) can0 18B#4B00
(1682575609.041626) can0 193#5300
(1682575609.041637) can0 19A#5800
(1682575609.041978) can0 194#4500
(1682575609.048543) can0 18E#2900
(1682575609.048549) can0 196#2400
(1682575609.048662) can0 70E#05
(1682575609.050363) can0 195#2D00
(1682575609.052503) can0 192#2200
(1682575609.052513) can0 18D#2800
(1682575609.055808) can0 18A#5200
(1682575609.062152) can0 197#2F00
(1682575609.068334) can0 18F#2200
(1682575609.072732) can0 190#3700
(1682575609.074089) can0 18C#3600
(1682575609.076730) can0 191#3D00
(1682575609.076741) can0 199#3E00
(1682575609.088506) can0 198#2A00
(1682575609.088842) can0 718#05
(1682575609.090569) can0 18B#4C00
(1682575609.091586) can0 193#5200
(1682575609.091896) can0 19A#5300
(1682575609.092063) can0 194#4400
(1682575609.092072) can0 71A#05
(1682575609.098210) can0 18E#2900
(1682575609.098683) can0 196#2200
(1682575609.100408) can0 195#3200
(1682575609.102630) can0 192#2200
(1682575609.102640) can0 18D#3400
(1682575609.106105) can0 18A#4300
(1682575609.112470) can0 197#2F00
(1682575609.117429) can0 18F#2300
(1682575609.122594) can0 190#3B00
(1682575609.124233) can0 18C#3700
(1682575609.127127) can0 191#3C00
(1682575609.127137) can0 199#3C00
(1682575609.138549) can0 198#2A00
(1682575609.140702) can0 18B#4C00
(1682575609.141594) can0 193#5100
(1682575609.142159) can0 194#4000
(1682575609.142169) can0 19A#4F00
(1682575609.148421) can0 18E#2900
(1682575609.148832) can0 196#1C00
(1682575609.150593) can0 195#2A00
(1682575609.152986) can0 192#3000
(1682575609.152996) can0 18D#2800
(1682575609.156426) can0 18A#5400
(1682575609.162208) can0 197#3000
(1682575609.167413) can0 18F#2400
(1682575609.172605) can0 190#3B00
(1682575609.173949) can0 18C#3900
(1682575609.176714) can0 191#3A00
(1682575609.176884) can0 199#3C00
(1682575609.188549) can0 198#2C00
(1682575609.189629) can0 18B#9200
(1682575609.192013) can0 193#5000
(1682575609.192211) can0 194#4200
(1682575609.192381) can0 19A#4C00
(1682575609.198514) can0 18E#2D00
(1682575609.198985) can0 196#2300
(1682575609.201106) can0 195#3000
(1682575609.203267) can0 192#3200
(1682575609.203278) can0 18D#3300
(1682575609.206524) can0 18A#5400
(1682575609.212460) can0 197#3200
(1682575609.217558) can0 18F#2400
(1682575609.222841) can0 190#3A00
(1682575609.224235) can0 18C#3800
(1682575609.227362) can0 191#3900
(1682575609.227373) can0 199#3A00
(1682575609.238628) can0 198#2D00
(1682575609.239727) can0 18B#4700
(1682575609.242166) can0 193#4F00
(1682575609.242300) can0 194#4100
(1682575609.242637) can0 19A#4800
(1682575609.248422) can0 18E#3B00
(1682575609.249241) can0 196#1B00
(1682575609.250783) can0 195#2F00
(1682575609.253357) can0 18D#2C00
(1682575609.253368) can0 192#2200
(1682575609.256588) can0 18A#5500
(1682575609.262555) can0 197#3600
(1682575609.267639) can0 18F#2500
(1682575609.273068) can0 190#3700
(1682575609.274065) can0 18C#5F00
(1682575609.277395) can0 191#3800
(1682575609.277406) can0 199#3900
(1682575609.288540) can0 198#2F00
(1682575609.290219) can0 18B#9100
(1682575609.291679) can0 193#4F00
(1682575609.292204) can0 713#05
(1682575609.292362) can0 194#4100
(1682575609.292998) can0 19A#4400
(1682575609.298572) can0 196#1C00
(1682575609.298583) can0 18E#3C00
(1682575609.301437) can0 195#2F00
(1682575609.303512) can0 18D#3100
(1682575609.303523) can0 192#2B00
(1682575609.306685) can0 18A#5200
(1682575609.312649) can0 197#3600
(1682575609.317723) can0 18F#2600
(1682575609.322813) can0 190#3C00
(1682575609.324242) can0 18C#3700
(1682575609.324466) can0 70C#05
(1682575609.327510) can0 191#3700
(1682575609.327520) can0 199#3800
(1682575609.338514) can0 198#2900
(1682575609.340320) can0 18B#9000
(1682575609.341974) can0 193#4E00
(1682575609.342140) can0 19A#4000
(1682575609.342467) can0 194#3F00
(1682575609.348490) can0 18E#2F00
(1682575609.348501) can0 196#1E00
(1682575609.351419) can0 195#2E00
(1682575609.353414) can0 18D#3600
(1682575609.353425) can0 192#2A00
(1682575609.357003) can0 18A#5000
(1682575609.361581) can0 197#3000
(1682575609.367704) can0 18F#2700
(1682575609.372044) can0 190#3C00
(1682575609.374118) can0 18C#3800
(1682575609.377421) can0 191#3600
(1682575609.377431) can0 199#3700
(1682575609.388739) can0 198#2A00
(1682575609.390048) can0 18B#9200
(1682575609.392358) can0 193#4D00
(1682575609.392368) can0 19A#3C00
(1682575609.392522) can0 194#3F00
(1682575609.398535) can0 18E#2E00
(1682575609.398545) can0 196#2100
(1682575609.401435) can0 195#2F00
(1682575609.403530) can0 18D#3000
(1682575609.403541) can0 192#2B00
(1682575609.407088) can0 18A#4F00
(1682575609.411709) can0 197#3800
(1682575609.417530) can0 18F#2900
(1682575609.422100) can0 190#3D00
(1682575609.424266) can0 18C#3B00
(1682575609.427490) can0 191#3400
(1682575609.427501) can0 199#3600
(1682575609.427506) can0 711#05
(1682575609.438734) can0 198#2C00
(1682575609.440420) can0 18B#4400
(1682575609.442318) can0 193#4D00
(1682575609.442602) can0 194#3D00
(1682575609.442612) can0 19A#3800
(1682575609.448668) can0 18E#2E00
(1682575609.448678) can0 196#1F00
(1682575609.451703) can0 195#2B00
(1682575609.453840) can0 18D#2F00
(1682575609.453851) can0 192#2700
(1682575609.453854) can0 70D#05
(1682575609.457249) can0 18A#4D00
(1682575609.461911) can0 197#3600
(1682575609.468099) can0 18F#2A00
(1682575609.472098) can0 190#3800
(1682575609.474107) can0 18C#3B00
(1682575609.477648) can0 191#3200
(1682575609.477658) can0 199#3500
(1682575609.488709) can0 198#2C00
(1682575609.490510) can0 18B#4400
(1682575609.492393) can0 193#4C00
(1682575609.492693) can0 194#3C00
(1682575609.492907) can0 19A#3500
(1682575609.493140) can0 714#05
(1682575609.498569) can0 18E#2E00
(1682575609.498861) can0 196#2000
(1682575609.501694) can0 195#2B00
(1682575609.501894) can0 715#05
(1682575609.504058) can0 18D#2F00
(1682575609.504070) can0 192#2B00
(1682575609.507345) can0 18A#3800
(1682575609.507355) can0 70A#05
(1682575609.511861) can0 197#3600
(1682575609.518070) can0 18F#2A00
(1682575609.522140) can0 190#3800
(1682575609.524295) can0 18C#3B00
(1682575609.527757) can0 191#3200
(1682575609.527768) can0 199#3400
(1682575609.528055) can0 719#05
(1682575609.538735) can0 198#2E00
(1682575609.540520) can0 18B#9200
(1682575609.542086) can0 193#4B00
(1682575609.542831) can0 194#3C00
(1682575609.543150) can0 19A#3100
(1682575609.548666) can0 18E#3000
(1682575609.548986) can0 196#2000
(1682575609.552201) can0 195#2B00
(1682575609.553988) can0 18D#3300
(1682575609.553998) can0 192#2400
(1682575609.557445) can0 18A#4A00
(1682575609.561689) can0 197#3600
(1682575609.567713) can0 18F#2C00
(1682575609.568190) can0 70F#05
(1682575609.571791) can0 190#3D00
(1682575609.573944) can0 18C#6B00
(1682575609.578048) can0 191#3100
(1682575609.578059) can0 199#3200
(1682575609.588758) can0 198#3000
(1682575609.590613) can0 18B#4100
(1682575609.592423) can0 193#4B00
(1682575609.592806) can0 194#3A00
(1682575609.593522) can0 19A#2F00
(1682575609.598643) can0 18E#3000
(1682575609.599140) can0 196#2700
(1682575609.602179) can0 195#2900
(1682575609.604330) can0 18D#3A00
(1682575609.604340) can0 192#3000
(1682575609.607434) can0 18A#3600
(1682575609.611677) can0 197#3600
(1682575609.618151) can0 18F#2B00
(1682575609.622148) can0 190#3900
(1682575609.624299) can0 18C#4200
(1682575609.628135) can0 191#3000
(1682575609.628145) can0 199#3100
(1682575609.638862) can0 198#3700
(1682575609.641111) can0 18B#9200
(1682575609.642523) can0 193#4A00
(1682575609.642895) can0 194#3900
(1682575609.643825) can0 19A#2A00
(1682575609.648784) can0 18E#3100
(1682575609.649290) can0 196#1C00
(1682575609.652543) can0 195#2900
(1682575609.654485) can0 18D#2C00
(1682575609.654495) can0 192#2400
(1682575609.657549) can0 18A#4700
(1682575609.662010) can0 197#3A00
(1682575609.668315) can0 18F#2F00
(1682575609.672389) can0 190#3E00
(1682575609.674084) can0 18C#3000
(1682575609.678151) can0 191#2F00
(1682575609.678161) can0 199#3100
(1682575609.688778) can0 198#3700
(1682575609.690740) can0 18B#9200
(1682575609.691129) can0 70B#05
(1682575609.692425) can0 193#4A00
(1682575609.692984) can0 194#3900
(1682575609.693980) can0 19A#2800
(1682575609.697658) can0 18E#3200
(1682575609.699727) can0 196#2900
(1682575609.702554) can0 195#2A00
(1682575609.704535) can0 18D#3000
(1682575609.704569) can0 192#2100
(1682575609.704893) can0 712#05
(1682575609.707672) can0 18A#3600
(1682575609.711864) can0 197#3600
(1682575609.717829) can0 18F#2D00
(1682575609.722470) can0 190#3F00
(1682575609.724403) can0 18C#3000
(1682575609.727530) can0 191#2E00
(1682575609.728138) can0 199#2F00
(1682575609.738105) can0 198#3300
(1682575609.741334) can0 18B#9200
(1682575609.742472) can0 193#4900
(1682575609.743089) can0 194#3800
(1682575609.744428) can0 19A#2300
(1682575609.747731) can0 18E#3300
(1682575609.749761) can0 196#2B00
(1682575609.752643) can0 195#2700
(1682575609.754496) can0 18D#2A00
(1682575609.754791) can0 192#2D00
(1682575609.757768) can0 18A#3A00
(1682575609.762060) can0 197#3600
(1682575609.768435) can0 18F#3400
(1682575609.772462) can0 190#3700
(1682575609.772473) can0 710#05
(1682575609.774029) can0 18C#3000
(1682575609.777450) can0 191#2D00
(1682575609.778461) can0 199#2E00
(1682575609.788109) can0 198#3300
(1682575609.791327) can0 18B#3A00
(1682575609.792517) can0 193#4800
(1682575609.793243) can0 194#3700
(1682575609.794561) can0 19A#2000
(1682575609.797699) can0 18E#3400
(1682575609.800156) can0 196#2D00
(1682575609.802674) can0 195#2500
(1682575609.804635) can0 18D#2A00
(1682575609.804967) can0 192#2900
(1682575609.808075) can0 18A#4200
(1682575609.812194) can0 197#3F00
(1682575609.812479) can0 717#05
(1682575609.818526) can0 18F#2C00
(1682575609.822498) can0 190#3700
(1682575609.824429) can0 18C#2200
(1682575609.827556) can0 191#2B00
(1682575609.828562) can0 199#2C00
(1682575609.838131) can0 198#3600
(1682575609.841451) can0 18B#9200
(1682575609.841461) can0 193#4700
(1682575609.843530) can0 194#3600
(1682575609.844941) can0 19A#1D00
(1682575609.847875) can0 18E#2900
(1682575609.850073) can0 196#2C00
(1682575609.853236) can0 195#2400
(1682575609.853640) can0 18D#2500
(1682575609.855435) can0 192#2700
(1682575609.858110) can0 18A#2F00
(1682575609.862060) can0 197#2400
(1682575609.868549) can0 18F#2D00
(1682575609.872445) can0 190#3800
(1682575609.873964) can0 18C#2400
(1682575609.877557) can0 191#2C00
(1682575609.878707) can0 199#2D00
(1682575609.888169) can0 198#3700
(1682575609.891447) can0 18B#9200
(1682575609.891457) can0 193#4600
(1682575609.893462) can0 194#3600
(1682575609.895152) can0 19A#1D00
(1682575609.897820) can0 18E#3600
(1682575609.900452) can0 196#2900
(1682575609.900463) can0 716#05
(1682575609.901987) can0 195#2200
(1682575609.904177) can0 18D#2400
(1682575609.905496) can0 192#2700
(1682575609.908319) can0 18A#3100
(1682575609.912297) can0 197#2400
(1682575609.918115) can0 18F#2D00
(1682575609.922581) can0 190#4000
(1682575609.924417) can0 18C#2300
(1682575609.927642) can0 191#2A00
(1682575609.928802) can0 199#2A00
(1682575609.938115) can0 198#3900
(1682575609.941453) can0 18B#9200
(1682575609.941589) can0 193#4600
(1682575609.943635) can0 194#3500
(1682575609.945450) can0 19A#5800
(1682575609.947861) can0 18E#3600
(1682575609.950171) can0 196#2800
(1682575609.952451) can0 195#2300
(1682575609.954105) can0 18D#3600
(1682575609.955627) can0 192#2400
(1682575609.958169) can0 18A#3600
(1682575609.962121) can0 197#2200
(1682575609.968569) can0 18F#2D00
(1682575609.972542) can0 190#3900
(1682575609.972938) can0 18C#2500
(1682575609.978020) can0 191#2A00
(1682575609.978824) can0 199#2900
(1682575609.988085) can0 198#3900
(1682575609.991538) can0 18B#3B00
(1682575609.991572) can0 193#4500
(1682575609.993455) can0 194#3400
(1682575609.995598) can0 19A#5500
(1682575609.997864) can0 18E#3700
(1682575610.000463) can0 196#3300
(1682575610.002551) can0 195#2200
(1682575610.004537) can0 18D#3500
(1682575610.006080) can0 192#2400
(1682575610.007439) can0 18A#3600
(1682575610.012499) can0 197#2300
(1682575610.018598) can0 18F#2D00
(1682575610.022118) can0 190#4000
(1682575610.023328) can0 18C#2A00
(1682575610.028147) can0 191#2700
(1682575610.028158) can0 199#2800
(1682575610.038220) can0 198#3C00
(1682575610.041667) can0 18B#9100
(1682575610.041677) can0 193#4400
(1682575610.042705) can0 194#3300
(1682575610.045985) can0 19A#5200
(1682575610.047927) can0 18E#3700
(1682575610.048250) can0 70E#05
(1682575610.050636) can0 196#3600
(1682575610.052681) can0 195#2300
(1682575610.054202) can0 18D#3A00
(1682575610.054985) can0 192#2200
(1682575610.057456) can0 18A#3600
(1682575610.062594) can0 197#2700
(1682575610.068550) can0 18F#2D00
(1682575610.072567) can0 190#3B00
(1682575610.072939) can0 18C#2700
(1682575610.078179) can0 191#2400
(1682575610.078190) can0 199#2700
(1682575610.088226) can0 198#3D00
(1682575610.088236) can0 718#05
(1682575610.091726) can0 18B#9300
(1682575610.091736) can0 193#4300
(1682575610.092655) can0 194#3200
(1682575610.096288) can0 19A#4F00
(1682575610.096298) can0 71A#05
(1682575610.097864) can0 18E#3900
(1682575610.101039) can0 196#3600
(1682575610.103176) can0 195#2300
(1682575610.104447) can0 18D#3100
(1682575610.105102) can0 192#2200
(1682575610.107644) can0 18A#3A00
(1682575610.112553) can0 197#2200
(1682575610.117570) can0 18F#2C00
(1682575610.122570) can0 190#3C00
(1682575610.122943) can0 18C#2700
(1682575610.127963) can0 191#2300
(1682575610.127995) can0 199#2600
(1682575610.138234) can0 198#3D00
(1682575610.142227) can0 18B#9200
(1682575610.142238) can0 193#4300
(1682575610.142719) can0 194#3100
(1682575610.146259) can0 19A#4B00
(1682575610.147850) can0 18E#3600
(1682575610.151183) can0 196#3600
(1682575610.153242) can0 195#3600
(1682575610.154611) can0 18D#3600
(1682575610.155398) can0 192#2200
(1682575610.157655) can0 18A#3600
(1682575610.162538) can0 197#2300
(1682575610.167634) can0 18F#2D00
(1682575610.172559) can0 190#4100
(1682575610.172943) can0 18C#2900
(1682575610.178382) can0 191#2200
(1682575610.178392) can0 199#2500
(1682575610.188276) can0 198#3F00
(1682575610.191329) can0 18B#9100
(1682575610.191896) can0 193#4200
(1682575610.193284) can0 194#3000
(1682575610.196740) can0 19A#4800
(1682575610.197942) can0 18E#3600
(1682575610.201358) can0 196#3600
(1682575610.203252) can0 195#2300
(1682575610.204872) can0 18D#3000
(1682575610.205443) can0 192#3000
(1682575610.207727) can0 18A#3600
(1682575610.212696) can0 197#1F00
(1682575610.217697) can0 18F#2C00
(1682575610.222480) can0 190#3E00
(1682575610.222959) can0 18C#2700
(1682575610.228513) can0 191#2200
(1682575610.228523) can0 199#2300
(1682575610.238310) can0 198#4100
(1682575610.241436) can0 18B#9300
(1682575610.241947) can0 193#4200
(1682575610.243268) can0 194#2F00
(1682575610.246758) can0 19A#4500
(1682575610.248003) can0 18E#3000
(1682575610.251474) can0 196#3900
(1682575610.253510) can0 195#3000
(1682575610.255158) can0 18D#3000
(1682575610.255604) can0 192#3000
(1682575610.258113) can0 18A#3500
(1682575610.262734) can0 197#2300
(1682575610.267704) can0 18F#2600
(1682575610.272578) can0 190#4200
(1682575610.272949) can0 18C#2900
(1682575610.278519) can0 191#2300
(1682575610.278531) can0 199#2400
(1682575610.288339) can0 198#4200
(1682575610.291545) can0 18B#3B00
(1682575610.292018) can0 193#4100
(1682575610.292512) can0 713#05
(1682575610.292949) can0 194#2F00
(1682575610.297265) can0 19A#4200
(1682575610.297814) can0 18E#3C00
(1682575610.300565) can0 196#3800
(1682575610.303581) can0 195#2F00
(1682575610.305298) can0 18D#3600
(1682575610.305807) can0 192#3000
(1682575610.308283) can0 18A#3300
(1682575610.312868) can0 197#2300
(1682575610.317826) can0 18F#2F00
(1682575610.322636) can0 190#3F00
(1682575610.322950) can0 18C#2A00
(1682575610.323675) can0 70C#05
(1682575610.328435) can0 191#3200
(1682575610.328469) can0 199#2400
(1682575610.337988) can0 198#4200
(1682575610.341478) can0 18B#3C00
(1682575610.342084) can0 193#4000
(1682575610.343422) can0 194#2D00
(1682575610.346253) can0 19A#3F00
(1682575610.347971) can0 18E#3000
(1682575610.350518) can0 196#3600
(1682575610.353675) can0 195#2300
(1682575610.355429) can0 18D#3100
(1682575610.355991) can0 192#2E00
(1682575610.358025) can0 18A#3100
(1682575610.361776) can0 197#2400
(1682575610.368016) can0 18F#2C00
(1682575610.371592) can0 190#4400
(1682575610.373091) can0 18C#2A00
(1682575610.378650) can0 191#3000
(1682575610.378661) can0 199#2400
(1682575610.388368) can0 198#4400
(1682575610.391487) can0 18B#9300
(1682575610.392467) can0 193#4000
(1682575610.393213) can0 194#2C00
(1682575610.396731) can0 19A#3C00
(1682575610.398218) can0 18E#3A00
(1682575610.400641) can0 196#3700
(1682575610.404145) can0 195#1B00
(1682575610.405562) can0 18D#4700
(1682575610.406179) can0 192#3000
(1682575610.408570) can0 18A#2900
(1682575610.412012) can0 197#2900
(1682575610.417770) can0 18F#2A00
(1682575610.421362) can0 190#4000
(1682575610.423452) can0 18C#2C00
(1682575610.428945) can0 191#3000
(1682575610.428955) can0 199#3C00
(1682575610.428961) can0 711#05
(1682575610.437884) can0 198#4500
(1682575610.441640) can0 18B#3C00
(1682575610.442188) can0 193#3F00
(1682575610.443559) can0 194#2C00
(1682575610.447068) can0 19A#3800
(1682575610.448105) can0 18E#3600
(1682575610.450830) can0 196#4400
(1682575610.454106) can0 195#1800
(1682575610.455593) can0 18D#4600
(1682575610.455622) can0 70D#05
(1682575610.456425) can0 192#2D00
(1682575610.458249) can0 18A#2900
(1682575610.461984) can0 197#2900
(1682575610.468239) can0 18F#2B00
(1682575610.471641) can0 190#4000
(1682575610.473463) can0 18C#2C00
(1682575610.478976) can0 191#3000
(1682575610.478986) can0 199#3B00
(1682575610.488330) can0 198#4800
(1682575610.491744) can0 18B#9400
(1682575610.492282) can0 193#3D00
(1682575610.493463) can0 194#2A00
(1682575610.493728) can0 714#05
(1682575610.497145) can0 19A#3600
(1682575610.497970) can0 18E#3000
(1682575610.501238) can0 196#4400
(1682575610.504561) can0 195#1B00
(1682575610.504573) can0 715#05
(1682575610.505758) can0 18D#5C00
(1682575610.506691) can0 192#2E00
(1682575610.508477) can0 18A#3000
(1682575610.508758) can0 70A#05
(1682575610.512004) can0 197#2A00
(1682575610.518313) can0 18F#2F00
(1682575610.521673) can0 190#4000
(1682575610.523202) can0 18C#2E00
(1682575610.528899) can0 191#3000
(1682575610.528930) can0 199#3B00
(1682575610.529411) can0 719#05
(1682575610.538102) can0 198#4900
(1682575610.541907) can0 18B#7200
(1682575610.542315) can0 193#3D00
(1682575610.543468) can0 194#2900
(1682575610.547402) can0 19A#3300
(1682575610.547966) can0 18E#3000
(1682575610.551359) can0 196#4300
(1682575610.554228) can0 195#1C00
(1682575610.556022) can0 18D#3000
(1682575610.556996) can0 192#2D00
(1682575610.558592) can0 18A#2C00
(1682575610.562109) can0 197#2E00
(1682575610.568366) can0 18F#2C00
(1682575610.568377) can0 70F#05
(1682575610.571717) can0 190#4100
(1682575610.573358) can0 18C#2F00
(1682575610.579387) can0 191#3000
(1682575610.579397) can0 199#3A00
(1682575610.588445) can0 198#4C00
(1682575610.592218) can0 18B#9200
(1682575610.592401) can0 193#3C00
(1682575610.593580) can0 194#2A00
(1682575610.597784) can0 19A#3000
(1682575610.597996) can0 18E#3B00
(1682575610.601493) can0 196#3900
(1682575610.604501) can0 195#1D00
(1682575610.606086) can0 18D#4600
(1682575610.607272) can0 192#2C00
(1682575610.608777) can0 18A#2B00
(1682575610.612219) can0 197#2E00
(1682575610.618428) can0 18F#2E00
(1682575610.621635) can0 190#4200
(1682575610.623342) can0 18C#3000
(1682575610.629268) can0 191#3800
(1682575610.629278) can0 199#3800
(1682575610.638489) can0 198#4D00
(1682575610.642325) can0 18B#6F00
(1682575610.642461) can0 193#3B00
(1682575610.643746) can0 194#2800
(1682575610.648017) can0 19A#2C00
(1682575610.648027) can0 18E#3000
(1682575610.651471) can0 196#3A00
(1682575610.654745) can0 195#2000
(1682575610.656289) can0 18D#4500
(1682575610.657457) can0 192#2B00
(1682575610.659194) can0 18A#2900
(1682575610.662283) can0 197#2F00
(1682575610.668485) can0 18F#2E00
(1682575610.671782) can0 190#4500
(1682575610.673051) can0 18C#3000
(1682575610.679506) can0 191#3800
(1682575610.679516) can0 199#3700
(1682575610.688534) can0 198#4F00
(1682575610.692432) can0 18B#8C00
(1682575610.692443) can0 70B#05
(1682575610.692476) can0 193#3B00
(1682575610.693885) can0 194#2A00
(1682575610.697364) can0 18E#3000
(1682575610.698393) can0 19A#2900
(1682575610.701582) can0 196#4000
(1682575610.705121) can0 195#2300
(1682575610.706056) can0 18D#4600
(1682575610.707475) can0 192#2A00
(1682575610.707509) can0 712#05
(1682575610.709204) can0 18A#2A00
(1682575610.712372) can0 197#3200
(1682575610.718564) can0 18F#2B00
(1682575610.721784) can0 190#4300
(1682575610.723338) can0 18C#3000
(1682575610.728606) can0 191#3B00
(1682575610.729696) can0 199#3A00
(1682575610.737062) can0 198#5000
(1682575610.742538) can0 18B#4B00
(1682575610.742549) can0 193#3A00
(1682575610.743814) can0 194#2800
(1682575610.747181) can0 18E#3100
(1682575610.748469) can0 19A#2700
(1682575610.751791) can0 196#4100
(1682575610.755258) can0 195#2100
(1682575610.756467) can0 18D#5500
(1682575610.757531) can0 192#2A00
(1682575610.759352) can0 18A#2700
(1682575610.762113) can0 197#3000
(1682575610.768583) can0 18F#2B00
(1682575610.771814) can0 190#3700
(1682575610.772132) can0 710#05
(1682575610.773335) can0 18C#3200
(1682575610.778719) can0 191#3600
(1682575610.779858) can0 199#3700
(1682575610.787576) can0 198#5400
(1682575610.792591) can0 18B#6E00
(1682575610.792601) can0 193#3900
(1682575610.794230) can0 194#2500
(1682575610.797424) can0 18E#3000
(1682575610.798783) can0 19A#3700
(1682575610.802222) can0 196#3A00
(1682575610.805442) can0 195#2200
(1682575610.806580) can0 18D#3A00
(1682575610.807699) can0 192#2A00
(1682575610.809456) can0 18A#2600
(1682575610.812379) can0 197#3600
(1682575610.812613) can0 717#05
(1682575610.818449) can0 18F#2C00
(1682575610.821842) can0 190#4300
(1682575610.823443) can0 18C#3300
(1682575610.828792) can0 191#2B00
(1682575610.829776) can0 199#3600
(1682575610.837596) can0 198#5500
(1682575610.842105) can0 193#3900
(1682575610.842257) can0 18B#6C00
(1682575610.844307) can0 194#2400
(1682575610.847446) can0 18E#3200
(1682575610.849021) can0 19A#3700
(1682575610.852383) can0 196#3A00
(1682575610.855502) can0 195#2300
(1682575610.856680) can0 18D#4300
(1682575610.858078) can0 192#2A00
(1682575610.859477) can0 18A#2400
(1682575610.862281) can0 197#3600
(1682575610.868611) can0 18F#3000
(1682575610.872068) can0 190#4800
(1682575610.873338) can0 18C#3400
(1682575610.879023) can0 191#3600
(1682575610.879973) can0 199#3500
(1682575610.887601) can0 198#5400
(1682575610.892292) can0 193#3800
(1682575610.892325) can0 18B#9100
(1682575610.894204) can0 194#2500
(1682575610.897497) can0 18E#3200
(1682575610.899565) can0 19A#3000
(1682575610.902102) can0 196#3C00
(1682575610.902346) can0 716#05
(1682575610.904497) can0 195#2300
(1682575610.905795) can0 18D#3600
(1682575610.908509) can0 192#2900
(1682575610.909469) can0 18A#3200
(1682575610.912438) can0 197#3000
(1682575610.918296) can0 18F#2E00
(1682575610.921656) can0 190#4400
(1682575610.923378) can0 18C#3500
(1682575610.929017) can0 191#3600
(1682575610.930007) can0 199#3500
(1682575610.937507) can0 198#5900
(1682575610.942247) can0 193#3800
(1682575610.942478) can0 18B#6E00
(1682575610.944094) can0 194#2300
(1682575610.947235) can0 18E#3200
(1682575610.949490) can0 19A#2B00
(1682575610.952504) can0 196#3C00
(1682575610.954658) can0 195#2600
(1682575610.956163) can0 18D#4100
(1682575610.958200) can0 192#2800
(1682575610.959547) can0 18A#3000
(1682575610.962522) can0 197#3100
(1682575610.968514) can0 18F#2F00
(1682575610.971728) can0 190#4500
(1682575610.971946) can0 18C#3600
(1682575610.979212) can0 191#3600
(1682575610.980222) can0 199#3400
(1682575610.987499) can0 198#5B00
(1682575610.992288) can0 193#3700
(1682575610.992594) can0 18B#9300
(1682575610.994057) can0 194#2300
(1682575610.997374) can0 18E#3300
(1682575610.999813) can0 19A#2800
(1682575611.002361) can0 196#3B00
(1682575611.005111) can0 195#2A00
(1682575611.005968) can0 18D#4B00
(1682575611.008631) can0 192#2A00
(1682575611.008637) can0 18A#3000
(1682575611.012595) can0 197#3E00
(1682575611.018497) can0 18F#2C00
(1682575611.022135) can0 190#4900
(1682575611.022146) can0 18C#3600
(1682575611.029209) can0 191#3600
(1682575611.029220) can0 199#3200
(1682575611.037610) can0 198#5D00
(1682575611.042109) can0 193#3600
(1682575611.042665) can0 18B#7B00
(1682575611.043149) can0 194#2200
(1682575611.047431) can0 18E#3600
(1682575611.047779) can0 70E#05
(1682575611.050113) can0 19A#2400
(1682575611.052620) can0 196#3C00
(1682575611.055376) can0 195#2900
(1682575611.056363) can0 18D#4A00
(1682575611.057799) can0 192#2800
(1682575611.059035) can0 18A#2F00
(1682575611.062747) can0 197#1600
(1682575611.068708) can0 18F#2D00
(1682575611.072200) can0 190#4700
(1682575611.072210) can0 18C#3700
(1682575611.079431) can0 191#3600
(1682575611.079441) can0 199#3000
(1682575611.087614) can0 198#3700
(1682575611.087758) can0 718#05
(1682575611.092015) can0 193#3600
(1682575611.093017) can0 18B#7200
(1682575611.093239) can0 194#2100
(1682575611.097520) can0 18E#3400
(1682575611.100598) can0 19A#2700
(1682575611.100608) can0 71A#05
(1682575611.103109) can0 196#3D00
(1682575611.105546) can0 195#2C00
(1682575611.106557) can0 18D#4600
(1682575611.108212) can0 192#2800
(1682575611.108747) can0 18A#2E00
(1682575611.112803) can0 197#3000
(1682575611.117841) can0 18F#2200
(1682575611.122109) can0 190#4600
(1682575611.122120) can0 18C#3800
(1682575611.129550) can0 191#3F00
(1682575611.129561) can0 199#3000
(1682575611.137610) can0 198#5D00
(1682575611.142108) can0 193#3600
(1682575611.143268) can0 18B#6400
(1682575611.143279) can0 194#2000
(1682575611.147480) can0 18E#3600
(1682575611.150500) can0 19A#2300
(1682575611.153162) can0 196#3800
(1682575611.155378) can0 195#2D00
(1682575611.156493) can0 18D#4400
(1682575611.157950) can0 192#2600
(1682575611.158883) can0 18A#4800
(1682575611.162670) can0 197#1D00
(1682575611.167710) can0 18F#2300
(1682575611.171807) can0 190#4700
(1682575611.172005) can0 18C#3900
(1682575611.179554) can0 191#3F00
(1682575611.179564) can0 199#3100
(1682575611.187650) can0 198#5F00
(1682575611.192413) can0 18B#3E00
(1682575611.192423) can0 193#3500
(1682575611.193489) can0 194#2200
(1682575611.197473) can0 18E#3600
(1682575611.200924) can0 19A#2200
(1682575611.203418) can0 196#3700
(1682575611.205608) can0 195#2A00
(1682575611.206682) can0 18D#4200
(1682575611.208495) can0 192#2500
(1682575611.209006) can0 18A#4B00
(1682575611.212989) can0 197#2200
(1682575611.217935) can0 18F#2300
(1682575611.221912) can0 190#4700
(1682575611.221958) can0 18C#3A00
(1682575611.229678) can0 191#3F00
(1682575611.229689) can0 199#2F00
(1682575611.237515) can0 198#0E00
(1682575611.242621) can0 18B#8C00
(1682575611.242632) can0 193#3500
(1682575611.243713) can0 194#1F00
(1682575611.247614) can0 18E#3600
(1682575611.251376) can0 19A#5C00
(1682575611.253474) can0 196#3600
(1682575611.255702) can0 195#2A00
(1682575611.257040) can0 18D#4100
(1682575611.258431) can0 192#2400
(1682575611.259214) can0 18A#2900
(1682575611.263047) can0 197#1B00
(1682575611.267879) can0 18F#2400
(1682575611.272432) can0 190#4900
(1682575611.272442) can0 18C#3B00
(1682575611.279831) can0 191#3F00
(1682575611.279838) can0 199#3100
(1682575611.287482) can0 198#6100
(1682575611.292407) can0 18B#8A00
(1682575611.292419) can0 193#3400
(1682575611.292730) can0 713#05
(1682575611.293697) can0 194#1D00
(1682575611.297507) can0 18E#3600
(1682575611.301500) can0 19A#5700
(1682575611.302560) can0 196#3600
(1682575611.306228) can0 195#2900
(1682575611.306830) can0 18D#3D00
(1682575611.308710) can0 192#2300
(1682575611.309228) can0 18A#4D00
(1682575611.313092) can0 197#2300
(1682575611.318258) can0 18F#2200
(1682575611.322465) can0 190#4900
(1682575611.322484) can0 18C#3C00
(1682575611.322523) can0 70C#05
(1682575611.329765) can0 191#3D00
(1682575611.329799) can0 199#3B00
(1682575611.337525) can0 198#1500
(1682575611.342325) can0 193#2200
(1682575611.342356) can0 18B#8800
(1682575611.343657) can0 194#1C00
(1682575611.347489) can0 18E#3600
(1682575611.350528) can0 19A#5500
(1682575611.352516) can0 196#3800
(1682575611.355932) can0 195#2800
(1682575611.357245) can0 18D#3D00
(1682575611.358831) can0 192#2400
(1682575611.359340) can0 18A#5200
(1682575611.362051) can0 197#2400
(1682575611.368282) can0 18F#2700
(1682575611.371477) can0 190#3800
(1682575611.371999) can0 18C#3E00
(1682575611.380132) can0 191#3E00
(1682575611.380143) can0 199#3F00
(1682575611.387499) can0 198#1400
(1682575611.392495) can0 193#3200
(1682575611.392505) can0 18B#6F00
(1682575611.393981) can0 194#1C00
(1682575611.397568) can0 18E#3700
(1682575611.400839) can0 19A#5300
(1682575611.402684) can0 196#3000
(1682575611.406130) can0 195#3300
(1682575611.407499) can0 18D#3A00
(1682575611.408781) can0 192#2400
(1682575611.409546) can0 18A#5400
(1682575611.412099) can0 197#1D00
(1682575611.418170) can0 18F#2600
(1682575611.421019) can0 190#4A00
(1682575611.421981) can0 18C#3E00
(1682575611.430325) can0 191#3D00
(1682575611.430336) can0 199#5500
(1682575611.430341) can0 711#05
(1682575611.437639) can0 198#1200
(1682575611.442713) can0 193#3200
(1682575611.442723) can0 18B#8500
(1682575611.444183) can0 194#2200
(1682575611.447580) can0 18E#3800
(1682575611.451031) can0 19A#4F00
(1682575611.453069) can0 196#3800
(1682575611.456564) can0 195#2600
(1682575611.457386) can0 18D#3800
(1682575611.457592) can0 70D#05
(1682575611.459411) can0 192#2300
(1682575611.459586) can0 18A#3600
(1682575611.462052) can0 197#2200
(1682575611.468313) can0 18F#2800
(1682575611.471414) can0 190#4900
(1682575611.472014) can0 18C#3F00
(1682575611.480457) can0 191#3B00
(1682575611.480468) can0 199#3C00
(1682575611.487660) can0 198#1400
(1682575611.492730) can0 193#3100
(1682575611.492740) can0 18B#3D00
(1682575611.494082) can0 194#5200
(1682575611.494345) can0 714#05
(1682575611.497461) can0 18E#3900
(1682575611.501530) can0 19A#5600
(1682575611.503213) can0 196#2F00
(1682575611.506561) can0 195#2300
(1682575611.506719) can0 715#05
(1682575611.507556) can0 18D#3600
(1682575611.509519) can0 192#2400
(1682575611.509690) can0 18A#4800
(1682575611.510101) can0 70A#05
(1682575611.512185) can0 197#2100
(1682575611.518100) can0 18F#2900
(1682575611.521463) can0 190#4B00
(1682575611.521968) can0 18C#3900
(1682575611.530348) can0 191#3B00
(1682575611.530359) can0 199#5800
(1682575611.530717) can0 719#05
(1682575611.537527) can0 198#1500
(1682575611.542689) can0 193#2200
(1682575611.542741) can0 18B#8200
(1682575611.544350) can0 194#5500
(1682575611.547630) can0 18E#3900
(1682575611.551530) can0 19A#4700
(1682575611.553380) can0 196#3600
(1682575611.556717) can0 195#2200
(1682575611.557637) can0 18D#3400
(1682575611.559532) can0 192#2200
(1682575611.559802) can0 18A#5B00
(1682575611.562118) can0 197#2300
(1682575611.568425) can0 18F#2B00
(1682575611.568592) can0 70F#05
(1682575611.571485) can0 190#4F00
(1682575611.572016) can0 18C#3600
(1682575611.580532) can0 191#3A00
(1682575611.580542) can0 199#3C00
(1682575611.587668) can0 198#1900
(1682575611.592938) can0 193#3000
(1682575611.592948) can0 18B#8100
(1682575611.594431) can0 194#1B00
(1682575611.597633) can0 18E#3900
(1682575611.601857) can0 19A#5200
(1682575611.603606) can0 196#3600
(1682575611.606842) can0 195#3600
(1682575611.607795) can0 18D#3400
(1682575611.609711) can0 192#2100
(1682575611.609923) can0 18A#4600
(1682575611.612351) can0 197#2300
(1682575611.618120) can0 18F#2C00
(1682575611.621538) can0 190#3000
(1682575611.621980) can0 18C#4200
(1682575611.630731) can0 191#3900
(1682575611.630741) can0 199#3F00
(1682575611.637704) can0 198#1700
(1682575611.642832) can0 193#3000
(1682575611.643012) can0 18B#7E00
(1682575611.644612) can0 194#6000
(1682575611.647796) can0 18E#3600
(1682575611.652422) can0 19A#4400
(1682575611.653571) can0 196#3400
(1682575611.657439) can0 195#3900
(1682575611.657851) can0 18D#3100
(1682575611.659872) can0 192#2200
(1682575611.660052) can0 18A#4200
(1682575611.662582) can0 197#2500
(1682575611.668549) can0 18F#2E00
(1682575611.671537) can0 190#4200
(1682575611.672034) can0 18C#2700
(1682575611.680829) can0 191#3700
(1682575611.680841) can0 199#4E00
(1682575611.687694) can0 198#1800
(1682575611.693187) can0 193#2200
(1682575611.693197) can0 18B#7D00
(1682575611.693591) can0 70B#05
(1682575611.694320) can0 194#4C00
(1682575611.696718) can0 18E#3900
(1682575611.702646) can0 19A#3D00
(1682575611.703655) can0 196#2F00
(1682575611.707297) can0 195#3B00
(1682575611.708089) can0 18D#2F00
(1682575611.709899) can0 192#2200
(1682575611.710153) can0 18A#3600
(1682575611.710197) can0 712#05
(1682575611.712446) can0 197#2800
(1682575611.718657) can0 18F#2D00
(1682575611.721634) can0 190#4100
(1682575611.722040) can0 18C#3000
(1682575611.729831) can0 191#3600
(1682575611.730932) can0 199#4400
(1682575611.736664) can0 198#1C00
(1682575611.743252) can0 193#2300
(1682575611.743262) can0 18B#6000
(1682575611.744514) can0 194#6B00
(1682575611.746805) can0 18E#3A00
(1682575611.752537) can0 19A#3A00
(1682575611.753580) can0 196#3300
(1682575611.757552) can0 195#3B00
(1682575611.758161) can0 18D#2F00
(1682575611.760531) can0 192#2100
(1682575611.760542) can0 18A#4000
(1682575611.762623) can0 197#2800
(1682575611.768651) can0 18F#3200
(1682575611.771501) can0 190#2200
(1682575611.771769) can0 710#05
(1682575611.772055) can0 18C#3700
(1682575611.780144) can0 191#3600
(1682575611.781177) can0 199#3700
(1682575611.786735) can0 198#1E00
(1682575611.793424) can0 193#2400
(1682575611.793435) can0 18B#5800
(1682575611.794577) can0 194#6900
(1682575611.796921) can0 18E#3800
(1682575611.802832) can0 19A#4700
(1682575611.804163) can0 196#3300
(1682575611.807706) can0 195#3A00
(1682575611.808293) can0 18D#2F00
(1682575611.810425) can0 192#1F00
(1682575611.810435) can0 18A#3E00
(1682575611.812583) can0 197#2A00
(1682575611.812909) can0 717#05
(1682575611.818633) can0 18F#2F00
(1682575611.821644) can0 190#2500
(1682575611.822043) can0 18C#2C00
(1682575611.830079) can0 191#3600
(1682575611.831177) can0 199#4000
(1682575611.836758) can0 198#1F00
(1682575611.842515) can0 193#2900
(1682575611.843434) can0 18B#5800
(1682575611.844581) can0 194#6400
(1682575611.846903) can0 18E#3700
(1682575611.853436) can0 19A#3900
(1682575611.853889) can0 196#3400
(1682575611.857831) can0 195#3900
(1682575611.858452) can0 18D#2B00
(1682575611.860663) can0 192#1F00
(1682575611.860674) can0 18A#3E00
(1682575611.862742) can0 197#2A00
(1682575611.868638) can0 18F#2F00
(1682575611.871628) can0 190#3400
(1682575611.872045) can0 18C#1E00
(1682575611.880192) can0 191#3500
(1682575611.881274) can0 199#3700
(1682575611.886855) can0 198#2100
(1682575611.892469) can0 193#2600
(1682575611.893724) can0 18B#7700
(1682575611.894688) can0 194#6300
(1682575611.896748) can0 18E#3A00
(1682575611.903683) can0 19A#3700
(1682575611.904036) can0 196#3100
(1682575611.904348) can0 716#05
(1682575611.906779) can0 195#3600
(1682575611.907668) can0 18D#3600
(1682575611.910601) can0 18A#4000
(1682575611.910639) can0 192#1D00
(1682575611.912541) can0 197#2C00
(1682575611.918523) can0 18F#2F00
(1682575611.921556) can0 190#3B00
(1682575611.922058) can0 18C#2F00
(1682575611.930308) can0 191#3600
(1682575611.931370) can0 199#4A00
(1682575611.936843) can0 198#2100
(1682575611.942109) can0 193#2900
(1682575611.943696) can0 18B#5300
(1682575611.944699) can0 194#4600
(1682575611.946782) can0 18E#3900
(1682575611.953541) can0 19A#3E00
(1682575611.954217) can0 196#3100
(1682575611.957366) can0 195#3500
(1682575611.957708) can0 18D#3400
(1682575611.961150) can0 18A#3900
(1682575611.961160) can0 192#1600
(1682575611.962680) can0 197#2F00
(1682575611.968641) can0 18F#2F00
(1682575611.971347) can0 190#3800
(1682575611.972153) can0 18C#2300
(1682575611.980538) can0 191#3400
(1682575611.981447) can0 199#4200
(1682575611.986842) can0 198#2200
(1682575611.992653) can0 193#2900
(1682575611.994286) can0 18B#5200
(1682575611.994668) can0 194#6400
(1682575611.996840) can0 18E#3900
(1682575612.003871) can0 19A#3A00
(1682575612.004366) can0 196#3000
(1682575612.007609) can0 195#3300
(1682575612.007885) can0 18D#3300
(1682575612.010103) can0 18A#4C00
(1682575612.011443) can0 192#2000
(1682575612.012827) can0 197#3000
(1682575612.018842) can0 18F#2D00
(1682575612.021592) can0 18C#2300
(1682575612.021604) can0 190#2A00
(1682575612.030594) can0 191#3600
(1682575612.030605) can0 199#4600
(1682575612.036972) can0 198#2200
(1682575612.042657) can0 193#2B00
(1682575612.044232) can0 194#6400
(1682575612.044242) can0 18B#7300
(1682575612.047034) can0 18E#3900
(1682575612.047313) can0 70E#05
(1682575612.054424) can0 19A#3800
(1682575612.054455) can0 196#3100
(1682575612.057560) can0 195#3100
(1682575612.058003) can0 18D#3100
(1682575612.060358) can0 18A#3600
(1682575612.060368) can0 192#1C00
(1682575612.063045) can0 197#3200
(1682575612.068917) can0 18F#2E00
(1682575612.071593) can0 18C#2400
(1682575612.071604) can0 190#2900
(1682575612.080663) can0 191#3800
(1682575612.080673) can0 199#3D00
(1682575612.086885) can0 198#2400
(1682575612.087228) can0 718#05
(1682575612.092305) can0 193#2800
(1682575612.094320) can0 194#6400
(1682575612.094331) can0 18B#7200
(1682575612.096933) can0 18E#3900
(1682575612.104560) can0 19A#3700
(1682575612.104571) can0 71A#05
(1682575612.104602) can0 196#2F00
(1682575612.107752) can0 195#3000
(1682575612.108148) can0 18D#2F00
(1682575612.110126) can0 18A#3700
(1682575612.110398) can0 192#1C00
(1682575612.112970) can0 197#3300
(1682575612.117806) can0 18F#2F00
(1682575612.121498) can0 18C#2500
(1682575612.121508) can0 190#2B00
(1682575612.130937) can0 191#3100
(1682575612.130947) can0 199#4000
(1682575612.136691) can0 198#2500
(1682575612.142525) can0 193#2800
(1682575612.144290) can0 194#6300
(1682575612.144300) can0 18B#7000
(1682575612.146918) can0 18E#3700
(1682575612.154556) can0 19A#3100
(1682575612.154811) can0 196#2E00
(1682575612.157752) can0 195#3900
(1682575612.158299) can0 18D#2F00
(1682575612.160537) can0 18A#3700
(1682575612.160547) can0 192#5200
(1682575612.163046) can0 197#3500
(1682575612.168124) can0 18F#2F00
(1682575612.171485) can0 18C#2500
(1682575612.171496) can0 190#2C00
(1682575612.181086) can0 191#3000
(1682575612.181096) can0 199#3B00
(1682575612.186851) can0 198#2700
(1682575612.192657) can0 193#2800
(1682575612.193271) can0 18B#4A00
(1682575612.194375) can0 194#3600
(1682575612.196816) can0 18E#3900
(1682575612.205189) can0 19A#3000
(1682575612.205199) can0 196#2F00
(1682575612.208314) can0 195#3700
(1682575612.208450) can0 18D#2F00
(1682575612.210433) can0 18A#3E00
(1682575612.210771) can0 192#1F00
(1682575612.213312) can0 197#3600
(1682575612.218316) can0 18F#3000
(1682575612.221602) can0 18C#2900
(1682575612.221612) can0 190#2E00
(1682575612.230883) can0 191#3000
(1682575612.230892) can0 199#3E00
(1682575612.237246) can0 198#2800
(1682575612.242765) can0 193#2800
(1682575612.243370) can0 18B#6D00
(1682575612.244443) can0 194#3800
(1682575612.247141) can0 18E#3900
(1682575612.254964) can0 19A#3600
(1682575612.255108) can0 196#2E00
(1682575612.258481) can0 195#3600
(1682575612.258581) can0 18D#4900
(1682575612.260574) can0 18A#3F00
(1682575612.260949) can0 192#1B00
(1682575612.263323) can0 197#3800
(1682575612.268373) can0 18F#2F00
(1682575612.271639) can0 18C#2C00
(1682575612.271649) can0 190#3100
(1682575612.281273) can0 191#3D00
(1682575612.281283) can0 199#3B00
(1682575612.287268) can0 198#2A00
(1682575612.292811) can0 193#2700
(1682575612.293013) can0 713#05
(1682575612.293483) can0 18B#4500
(1682575612.294440) can0 194#5F00
(1682575612.297083) can0 18E#3A00
(1682575612.304659) can0 196#2B00
(1682575612.305239) can0 19A#3400
(1682575612.308547) can0 195#3300
(1682575612.308724) can0 18D#4A00
(1682575612.310817) can0 18A#4100
(1682575612.311134) can0 192#5100
(1682575612.313287) can0 197#3A00
(1682575612.318101) can0 18F#3000
(1682575612.321500) can0 18C#3000
(1682575612.321511) can0 190#3600
(1682575612.321705) can0 70C#05
(1682575612.331199) can0 191#3900
(1682575612.331208) can0 199#3D00
(1682575612.336861) can0 198#2B00
(1682575612.342701) can0 193#2500
(1682575612.343609) can0 18B#4100
(1682575612.344324) can0 194#3A00
(1682575612.346999) can0 18E#3A00
(1682575612.354470) can0 196#2F00
(1682575612.354478) can0 19A#4000
(1682575612.358416) can0 195#3600
(1682575612.358881) can0 18D#3600
(1682575612.360764) can0 18A#3C00
(1682575612.361340) can0 192#1C00
(1682575612.362266) can0 197#3B00
(1682575612.368137) can0 18F#3000
(1682575612.370703) can0 190#3100
(1682575612.371103) can0 18C#2F00
(1682575612.381486) can0 191#3A00
(1682575612.381494) can0 199#3900
(1682575612.387039) can0 198#2E00
(1682575612.392924) can0 193#2800
(1682575612.393848) can0 18B#4300
(1682575612.394324) can0 194#4400
(1682575612.397237) can0 18E#3900
(1682575612.404824) can0 196#2F00
(1682575612.404834) can0 19A#3D00
(1682575612.408765) can0 195#3600
(1682575612.409037) can0 18D#4F00
(1682575612.410843) can0 18A#6700
(1682575612.411828) can0 192#1C00
(1682575612.412247) can0 197#3E00
(1682575612.418351) can0 18F#3000
(1682575612.420770) can0 190#3500
(1682575612.421099) can0 18C#3100
(1682575612.431454) can0 191#3800
(1682575612.431464) can0 199#3700
(1682575612.431597) can0 711#05
(1682575612.436945) can0 198#2F00
(1682575612.442755) can0 193#2600
(1682575612.444203) can0 18B#6700
(1682575612.444397) can0 194#5C00
(1682575612.447290) can0 18E#3800
(1682575612.454649) can0 196#2A00
(1682575612.454942) can0 19A#2E00
(1682575612.458819) can0 195#3600
(1682575612.459154) can0 18D#4A00
(1682575612.459515) can0 70D#05
(1682575612.461305) can0 18A#3B00
(1682575612.461713) can0 192#1C00
(1682575612.462542) can0 197#4000
(1682575612.468513) can0 18F#3000
(1682575612.470785) can0 190#2800
(1682575612.471098) can0 18C#3400
(1682575612.481615) can0 191#3600
(1682575612.481625) can0 199#3700
(1682575612.487232) can0 198#3000
(1682575612.493205) can0 193#2600
(1682575612.493987) can0 18B#3F00
(1682575612.494606) can0 194#3D00
(1682575612.494922) can0 714#05
(1682575612.497112) can0 18E#3900
(1682575612.505358) can0 196#2900
(1682575612.505368) can0 19A#2A00
(1682575612.509360) can0 195#3600
(1682575612.509370) can0 715#05
(1682575612.509376) can0 18D#4B00
(1682575612.511532) can0 18A#3C00
(1682575612.511543) can0 70A#05
(1682575612.511893) can0 192#1D00
(1682575612.512363) can0 197#4200
(1682575612.518573) can0 18F#2F00
(1682575612.520756) can0 190#3600
(1682575612.521106) can0 18C#2200
(1682575612.531713) can0 191#3600
(1682575612.531723) can0 199#3500
(1682575612.532020) can0 719#05
(1682575612.537259) can0 198#3100
(1682575612.543379) can0 193#2300
(1682575612.544234) can0 18B#6400
(1682575612.544602) can0 194#3600
(1682575612.547268) can0 18E#3800
(1682575612.555375) can0 196#2900
(1682575612.555410) can0 19A#3700
(1682575612.559351) can0 195#3600
(1682575612.559402) can0 18D#5800
(1682575612.561208) can0 18A#3B00
(1682575612.562015) can0 192#2100
(1682575612.562437) can0 197#4300
(1682575612.568375) can0 18F#3000
(1682575612.568709) can0 70F#05
(1682575612.570806) can0 190#2200
(1682575612.571101) can0 18C#3000
(1682575612.581928) can0 191#3400
(1682575612.581936) can0 199#3300
(1682575612.587137) can0 198#3300
(1682575612.593156) can0 193#2400
(1682575612.594375) can0 18B#6200
(1682575612.594641) can0 194#3F00
(1682575612.597218) can0 18E#3900
(1682575612.605375) can0 196#2A00
(1682575612.605710) can0 19A#3300
(1682575612.609423) can0 195#3000
(1682575612.609595) can0 18D#4B00
(1682575612.611391) can0 18A#3600
(1682575612.612366) can0 192#2300
(1682575612.612499) can0 197#4500
(1682575612.618527) can0 18F#2F00
(1682575612.620816) can0 190#2700
(1682575612.621115) can0 18C#3700
(1682575612.632022) can0 191#3100
(1682575612.632030) can0 199#3200
(1682575612.637184) can0 198#3400
(1682575612.643233) can0 193#2400
(1682575612.644501) can0 18B#6100
(1682575612.644712) can0 194#3A00
(1682575612.647225) can0 18E#3800
(1682575612.655543) can0 196#3B00
(1682575612.655986) can0 19A#3100
(1682575612.659647) can0 195#3B00
(1682575612.659694) can0 18D#4B00
(1682575612.661530) can0 18A#3600
(1682575612.662563) can0 192#2400
(1682575612.662573) can0 197#4700
(1682575612.668485) can0 18F#3000
(1682575612.670879) can0 190#2900
(1682575612.671142) can0 18C#3900
(1682575612.682068) can0 191#3000
(1682575612.682096) can0 199#3000
(1682575612.687321) can0 198#3600
(1682575612.693058) can0 193#2400
(1682575612.694664) can0 18B#5F00
(1682575612.694722) can0 70B#05
(1682575612.694845) can0 194#4400
(1682575612.696268) can0 18E#3800
(1682575612.705699) can0 196#2800
(1682575612.706216) can0 19A#3100
(1682575612.709789) can0 195#3900
(1682575612.709846) can0 18D#4A00
(1682575612.711636) can0 18A#3700
(1682575612.712748) can0 192#2500
(1682575612.712754) can0 197#4800
(1682575612.712840) can0 712#05
(1682575612.718456) can0 18F#2F00
(1682575612.721251) can0 190#2C00
(1682575612.721261) can0 18C#3600
(1682575612.731344) can0 191#2F00
(1682575612.732267) can0 199#2E00
(1682575612.736365) can0 198#3700
(1682575612.743490) can0 193#2300
(1682575612.744629) can0 18B#5E00
(1682575612.744892) can0 194#3B00
(1682575612.746185) can0 18E#3900
(1682575612.755765) can0 196#2800
(1682575612.756609) can0 19A#4000
(1682575612.760134) can0 195#3600
(1682575612.760144) can0 18D#4B00
(1682575612.761722) can0 18A#4900
(1682575612.762716) can0 197#2200
(1682575612.762748) can0 192#1600
(1682575612.768589) can0 18F#3000
(1682575612.770919) can0 190#2400
(1682575612.771121) can0 18C#2200
(1682575612.771310) can0 710#05
(1682575612.781430) can0 191#2D00
(1682575612.782320) can0 199#2D00
(1682575612.786120) can0 198#3900
(1682575612.793686) can0 193#2300
(1682575612.794856) can0 18B#5C00
(1682575612.794911) can0 194#5600
(1682575612.796366) can0 18E#3800
(1682575612.806239) can0 196#2900
(1682575612.806679) can0 19A#2A00
(1682575612.809887) can0 195#3500
(1682575612.810167) can0 18D#4B00
(1682575612.811797) can0 18A#3600
(1682575612.812964) can0 197#2000
(1682575612.812974) can0 192#2900
(1682575612.813258) can0 717#05
(1682575612.818822) can0 18F#2F00
(1682575612.821335) can0 190#2400
(1682575612.821345) can0 18C#2300
(1682575612.831474) can0 191#2C00
(1682575612.832558) can0 199#2B00
(1682575612.836405) can0 198#3A00
(1682575612.842275) can0 193#2200
(1682575612.844899) can0 18B#5B00
(1682575612.845041) can0 194#3B00
(1682575612.846304) can0 18E#3900
(1682575612.856378) can0 196#3500
(1682575612.857010) can0 19A#3A00
(1682575612.860479) can0 195#3200
(1682575612.860489) can0 18D#4A00
(1682575612.861943) can0 18A#4100
(1682575612.863075) can0 197#2200
(1682575612.863110) can0 192#2800
(1682575612.868868) can0 18F#2F00
(1682575612.871367) can0 190#2500
(1682575612.871378) can0 18C#2B00
(1682575612.881671) can0 191#2B00
(1682575612.882665) can0 199#2A00
(1682575612.886542) can0 198#3C00
(1682575612.892568) can0 193#2300
(1682575612.894992) can0 18B#5A00
(1682575612.895138) can0 194#3C00
(1682575612.896536) can0 18E#3800
(1682575612.906534) can0 196#3500
(1682575612.906544) can0 716#05
(1682575612.907486) can0 19A#3700
(1682575612.909574) can0 195#3000
(1682575612.909584) can0 18D#4B00
(1682575612.912170) can0 18A#4900
(1682575612.913119) can0 197#2400
(1682575612.913324) can0 192#2900
(1682575612.918887) can0 18F#2C00
(1682575612.920939) can0 190#2600
(1682575612.921110) can0 18C#2A00
(1682575612.931758) can0 191#2900
(1682575612.932685) can0 199#2B00
(1682575612.936560) can0 198#3600
(1682575612.942384) can0 193#2100
(1682575612.945095) can0 18B#5800
(1682575612.945151) can0 194#5400
(1682575612.946455) can0 18E#3800
(1682575612.956500) can0 196#2600
(1682575612.957538) can0 19A#6200
(1682575612.959413) can0 195#2F00
(1682575612.959679) can0 18D#8A00
(1682575612.962075) can0 18A#5400
(1682575612.963131) can0 197#2900
(1682575612.963500) can0 192#2B00
(1682575612.968779) can0 18F#3100
(1682575612.970917) can0 190#2A00
(1682575612.971153) can0 18C#2B00
(1682575612.981844) can0 191#3900
(1682575612.982966) can0 199#2A00
(1682575612.986492) can0 198#3600
(1682575612.992705) can0 193#2000
(1682575612.995291) can0 18B#5800
(1682575612.995301) can0 194#5100
(1682575612.996611) can0 18E#3800
(1682575613.006327) can0 196#2400
(1682575613.008128) can0 19A#3F00
(1682575613.009731) can0 195#3600
(1682575613.009741) can0 18D#4B00
(1682575613.011516) can0 18A#7600
(1682575613.013151) can0 197#2A00
(1682575613.013717) can0 192#2B00
(1682575613.018794) can0 18F#3000
(1682575613.020545) can0 18C#2A00
(1682575613.020982) can0 190#2B00
(1682575613.031909) can0 191#3600
(1682575613.031919) can0 199#2B00
(1682575613.036618) can0 198#3600
(1682575613.042743) can0 193#2300
(1682575613.044585) can0 194#3700
(1682575613.045075) can0 18B#5500
(1682575613.046532) can0 18E#3700
(1682575613.046865) can0 70E#05
(1682575613.056607) can0 196#2300
(1682575613.058009) can0 19A#3900
(1682575613.060144) can0 195#2F00
(1682575613.060155) can0 18D#4B00
(1682575613.061516) can0 18A#7600
(1682575613.063030) can0 192#2E00
(1682575613.063041) can0 197#2E00
(1682575613.069236) can0 18F#2F00
(1682575613.070167) can0 18C#2F00
(1682575613.071386) can0 190#2B00
(1682575613.082370) can0 191#3500
(1682575613.082381) can0 199#3000
(1682575613.086554) can0 198#3600
(1682575613.086689) can0 718#05
(1682575613.092698) can0 193#2300
(1682575613.094698) can0 194#2200
(1682575613.095182) can0 18B#5500
(1682575613.096468) can0 18E#3800
(1682575613.106912) can0 196#2300
(1682575613.108682) can0 19A#3900
(1682575613.108692) can0 71A#05
(1682575613.110390) can0 195#4300
(1682575613.110400) can0 18D#4D00
(1682575613.111615) can0 18A#7600
(1682575613.113223) can0 192#2F00
(1682575613.113233) can0 197#3000
(1682575613.118448) can0 18F#3100
(1682575613.120657) can0 18C#2F00
(1682575613.121030) can0 190#2C00
(1682575613.132498) can0 191#3400
(1682575613.132509) can0 199#3300
(1682575613.136665) can0 198#3600
(1682575613.142780) can0 193#2300
(1682575613.144691) can0 194#4100
(1682575613.145338) can0 18B#5400
(1682575613.146485) can0 18E#3800
(1682575613.157212) can0 196#2200
(1682575613.158649) can0 19A#5100
(1682575613.160486) can0 195#3E00
(1682575613.160496) can0 18D#4C00
(1682575613.161587) can0 18A#7800
(1682575613.163395) can0 192#2F00
(1682575613.163406) can0 197#2200
(1682575613.168392) can0 18F#3000
(1682575613.170310) can0 18C#3300
(1682575613.171463) can0 190#2F00
(1682575613.182160) can0 191#3100
(1682575613.182170) can0 199#3100
(1682575613.186216) can0 198#3600
(1682575613.192847) can0 193#1F00
(1682575613.194522) can0 18B#5200
(1682575613.194593) can0 194#3E00
(1682575613.196498) can0 18E#3900
(1682575613.207436) can0 196#2200
(1682575613.209233) can0 19A#6900
(1682575613.210698) can0 195#3600
(1682575613.210706) can0 18D#4D00
(1682575613.211770) can0 18A#7900
(1682575613.213437) can0 197#2400
(1682575613.213447) can0 192#3000
(1682575613.218117) can0 18F#3000
(1682575613.220569) can0 18C#3500
(1682575613.221128) can0 190#3100
(1682575613.232514) can0 191#3000
(1682575613.232525) can0 199#3100
(1682575613.236708) can0 198#3600
(1682575613.242816) can0 193#3700
(1682575613.244650) can0 18B#4400
(1682575613.244660) can0 194#4600
(1682575613.246593) can0 18E#3900
(1682575613.257606) can0 196#2F00
(1682575613.258945) can0 19A#6700
(1682575613.260594) can0 195#4400
(1682575613.260612) can0 18D#4E00
(1682575613.262027) can0 18A#5F00
(1682575613.263472) can0 197#1D00
(1682575613.263542) can0 192#3100
(1682575613.268599) can0 18F#3000
(1682575613.270664) can0 18C#3800
(1682575613.271138) can0 190#3300
(1682575613.282663) can0 191#3000
(1682575613.282671) can0 199#3700
(1682575613.286729) can0 198#3800
(1682575613.293331) can0 193#2200
(1682575613.293341) can0 713#05
(1682575613.294893) can0 18B#4F00
(1682575613.294904) can0 194#4C00
(1682575613.296592) can0 18E#3800
(1682575613.306628) can0 196#2E00
(1682575613.309592) can0 19A#6600
(1682575613.310721) can0 195#3C00
(1682575613.310731) can0 18D#4D00
(1682575613.311993) can0 18A#3600
(1682575613.313512) can0 197#2000
(1682575613.313760) can0 192#3200
(1682575613.318262) can0 18F#3100
(1682575613.320568) can0 18C#2300
(1682575613.320743) can0 70C#05
(1682575613.321201) can0 190#3500
(1682575613.332437) can0 191#5300
(1682575613.332477) can0 199#3700
(1682575613.336259) can0 198#3600
(1682575613.342873) can0 193#2F00
(1682575613.344690) can0 18B#4E00
(1682575613.344809) can0 194#4A00
(1682575613.346434) can0 18E#3800
(1682575613.356326) can0 196#2C00
(1682575613.358449) can0 19A#4100
(1682575613.361149) can0 18D#4D00
(1682575613.361158) can0 195#3800
(1682575613.361925) can0 18A#7900
(1682575613.362621) can0 197#2100
(1682575613.364121) can0 192#3400
(1682575613.368618) can0 18F#3000
(1682575613.370119) can0 18C#3600
(1682575613.370206) can0 190#3600
(1682575613.382601) can0 191#3600
(1682575613.382610) can0 199#3500
(1682575613.386470) can0 198#3A00
(1682575613.393337) can0 193#2C00
(1682575613.394984) can0 18B#4400
(1682575613.394992) can0 194#2B00
(1682575613.396630) can0 18E#3700
(1682575613.406676) can0 196#2B00
(1682575613.409147) can0 19A#3D00
(1682575613.411273) can0 18D#4B00
(1682575613.411282) can0 195#4300
(1682575613.412166) can0 18A#7800
(1682575613.412512) can0 197#2300
(1682575613.414123) can0 192#3400
(1682575613.418300) can0 18F#3000
(1682575613.420574) can0 18C#2800
(1682575613.420584) can0 190#3700
(1682575613.432921) can0 191#3700
(1682575613.432931) can0 199#3700
(1682575613.432937) can0 711#05
(1682575613.436707) can0 198#3B00
(1682575613.443518) can0 193#3600
(1682575613.445025) can0 18B#4C00
(1682575613.445036) can0 194#2900
(1682575613.446742) can0 18E#3800
(1682575613.456906) can0 196#2900
(1682575613.459494) can0 19A#3C00
(1682575613.461442) can0 18D#4C00
(1682575613.461452) can0 195#3600
(1682575613.461457) can0 70D#05
(1682575613.462295) can0 18A#7A00
(1682575613.462589) can0 197#2300
(1682575613.464322) can0 192#3500
(1682575613.468610) can0 18F#3100
(1682575613.470206) can0 18C#2C00
(1682575613.470216) can0 190#2200
(1682575613.482881) can0 191#3B00
(1682575613.482891) can0 199#3300
(1682575613.486453) can0 198#3F00
(1682575613.493583) can0 193#3000
(1682575613.495215) can0 18B#4A00
(1682575613.495225) can0 194#4900
(1682575613.495570) can0 714#05
(1682575613.496690) can0 18E#3800
(1682575613.507222) can0 196#2600
(1682575613.509623) can0 19A#3700
(1682575613.511541) can0 18D#4C00
(1682575613.511551) can0 195#3D00
(1682575613.511556) can0 715#05
(1682575613.512406) can0 18A#7C00
(1682575613.512657) can0 197#2400
(1682575613.512682) can0 70A#05
(1682575613.514723) can0 192#3600
(1682575613.518627) can0 18F#3100
(1682575613.520580) can0 18C#3000
(1682575613.520592) can0 190#2200
(1682575613.533296) can0 191#5500
(1682575613.533307) can0 199#4500
(1682575613.533310) can0 719#05
(1682575613.536718) can0 198#3E00
(1682575613.543547) can0 193#3600
(1682575613.545341) can0 18B#4900
(1682575613.545352) can0 194#4700
(1682575613.546710) can0 18E#3800
(1682575613.556999) can0 196#2200
(1682575613.559679) can0 19A#3A00
(1682575613.561545) can0 18D#4C00
(1682575613.561555) can0 195#4300
(1682575613.562513) can0 18A#6E00
(1682575613.562710) can0 197#2400
(1682575613.564907) can0 192#3700
(1682575613.568603) can0 18F#3100
(1682575613.568942) can0 70F#05
(1682575613.570304) can0 18C#3500
(1682575613.570314) can0 190#2200
(1682575613.583387) can0 191#5500
(1682575613.583398) can0 199#4800
(1682575613.586624) can0 198#3600
(1682575613.593730) can0 193#3600
(1682575613.595426) can0 18B#4800
(1682575613.595437) can0 194#2200
(1682575613.596826) can0 18E#3900
(1682575613.607148) can0 196#2600
(1682575613.610124) can0 19A#5B00
(1682575613.611715) can0 18D#4C00
(1682575613.611726) can0 195#3F00
(1682575613.612720) can0 18A#7B00
(1682575613.612730) can0 197#2600
(1682575613.614904) can0 192#3800
(1682575613.618770) can0 18F#3000
(1682575613.620578) can0 18C#3600
(1682575613.620588) can0 190#2500
(1682575613.633644) can0 191#3600
(1682575613.633654) can0 199#3A00
(1682575613.636621) can0 198#3A00
(1682575613.643637) can0 193#3100
(1682575613.645496) can0 18B#4500
(1682575613.645507) can0 194#2900
(1682575613.646754) can0 18E#3600
(1682575613.657732) can0 196#2400
(1682575613.660527) can0 19A#5900
(1682575613.661855) can0 18D#4C00
(1682575613.661865) can0 195#4200
(1682575613.662748) can0 18A#7C00
(1682575613.662781) can0 197#2800
(1682575613.665442) can0 192#3900
(1682575613.668740) can0 18F#3100
(1682575613.670321) can0 18C#3B00
(1682575613.670354) can0 190#2800
(1682575613.683619) can0 191#3600
(1682575613.683629) can0 199#2C00
(1682575613.686558) can0 198#4300
(1682575613.693729) can0 193#3600
(1682575613.695572) can0 194#4400
(1682575613.695582) can0 18B#4500
(1682575613.695615) can0 18E#3800
(1682575613.695893) can0 70B#05
(1682575613.707733) can0 196#2500
(1682575613.710289) can0 19A#5800
(1682575613.711973) can0 18D#4C00
(1682575613.711984) can0 195#4100
(1682575613.712978) can0 18A#4F00
(1682575613.712988) can0 197#2900
(1682575613.715725) can0 192#3B00
(1682575613.715736) can0 712#05
(1682575613.718904) can0 18F#3000
(1682575613.720583) can0 18C#4000
(1682575613.720593) can0 190#2A00
(1682575613.732557) can0 191#5600
(1682575613.733598) can0 199#3700
(1682575613.735615) can0 198#3600
(1682575613.743704) can0 193#3600
(1682575613.745666) can0 194#2300
(1682575613.745676) can0 18B#4400
(1682575613.745682) can0 18E#3800
(1682575613.757708) can0 196#2200
(1682575613.760686) can0 19A#5600
(1682575613.762006) can0 18D#4C00
(1682575613.762132) can0 195#4100
(1682575613.763028) can0 18A#7700
(1682575613.763039) can0 197#2B00
(1682575613.765614) can0 192#3C00
(1682575613.768817) can0 18F#3000
(1682575613.770321) can0 18C#4400
(1682575613.770473) can0 190#2B00
(1682575613.771096) can0 710#05
(1682575613.782608) can0 191#5800
(1682575613.783609) can0 199#4000
(1682575613.785627) can0 198#3600
(1682575613.793641) can0 193#3600
(1682575613.795809) can0 194#4200
(1682575613.795818) can0 18B#4200
(1682575613.795824) can0 18E#3800
(1682575613.807987) can0 196#3100
(1682575613.811261) can0 19A#5500
(1682575613.812364) can0 18D#4C00
(1682575613.812374) can0 195#4000
(1682575613.813110) can0 18A#7800
(1682575613.813121) can0 197#2C00
(1682575613.813500) can0 717#05
(1682575613.815843) can0 192#3E00
(1682575613.818919) can0 18F#2F00
(1682575613.820604) can0 18C#4800
(1682575613.820614) can0 190#2F00
(1682575613.832762) can0 191#5600
(1682575613.833750) can0 199#4200
(1682575613.835633) can0 198#3700
(1682575613.842719) can0 193#3B00
(1682575613.845799) can0 194#4300
(1682575613.845810) can0 18E#3700
(1682575613.845815) can0 18B#4100
(1682575613.858396) can0 196#2300
(1682575613.861444) can0 19A#5200
(1682575613.862295) can0 18D#4C00
(1682575613.862506) can0 195#3E00
(1682575613.863159) can0 197#2D00
(1682575613.863170) can0 18A#7A00
(1682575613.865958) can0 192#3F00
(1682575613.869189) can0 18F#2F00
(1682575613.870226) can0 18C#2A00
(1682575613.870528) can0 190#2F00
(1682575613.882925) can0 191#5800
(1682575613.884022) can0 199#4900
(1682575613.885805) can0 198#3800
(1682575613.892882) can0 193#3000
(1682575613.896024) can0 194#4100
(1682575613.896034) can0 18E#3800
(1682575613.896039) can0 18B#3F00
(1682575613.908531) can0 196#2300
(1682575613.908541) can0 716#05
(1682575613.911484) can0 19A#5100
(1682575613.911494) can0 18D#4D00
(1682575613.911661) can0 195#3E00
(1682575613.913230) can0 197#2F00
(1682575613.913240) can0 18A#7700
(1682575613.916431) can0 192#4000
(1682575613.919365) can0 18F#1F00
(1682575613.920705) can0 18C#5000
(1682575613.920716) can0 190#3300
(1682575613.933331) can0 191#5900
(1682575613.933825) can0 199#3800
(1682575613.935587) can0 198#4B00
(1682575613.942706) can0 193#3700
(1682575613.945856) can0 18E#3800
(1682575613.945867) can0 194#2300
(1682575613.946000) can0 18B#3E00
(1682575613.958191) can0 196#3400
(1682575613.961653) can0 18D#4D00
(1682575613.961663) can0 19A#4F00
(1682575613.961824) can0 195#3F00
(1682575613.963368) can0 197#2F00
(1682575613.963378) can0 18A#7900
(1682575613.966138) can0 192#4100
(1682575613.969343) can0 18F#2F00
(1682575613.970415) can0 18C#2200
(1682575613.970579) can0 190#3500
(1682575613.983448) can0 191#5A00
(1682575613.983958) can0 199#4900
(1682575613.985885) can0 198#3B00
(1682575613.993075) can0 193#3000
(1682575613.996111) can0 18E#3900
(1682575613.996121) can0 194#2200
(1682575613.996127) can0 18B#3C00
(1682575614.008642) can0 196#3100
(1682575614.011724) can0 18D#4C00
(1682575614.011758) can0 19A#4D00
(1682575614.012007) can0 195#3F00
(1682575614.012488) can0 18A#7300
(1682575614.013382) can0 197#3100
(1682575614.016745) can0 192#4300
(1682575614.019502) can0 18F#2200
(1682575614.019512) can0 18C#2C00
(1682575614.020840) can0 190#2200
(1682575614.033557) can0 191#5900
(1682575614.033568) can0 199#4D00
(1682575614.035795) can0 198#3E00
(1682575614.042933) can0 193#3000
(1682575614.045260) can0 194#2300
(1682575614.045844) can0 18E#3700
(1682575614.046251) can0 18B#3B00
(1682575614.046376) can0 70E#05
(1682575614.058745) can0 196#3000
(1682575614.062024) can0 18D#4D00
(1682575614.062035) can0 19A#4B00
(1682575614.062174) can0 195#3900
(1682575614.062599) can0 18A#7600
(1682575614.063391) can0 197#3200
(1682575614.066633) can0 192#4300
(1682575614.069082) can0 18F#2500
(1682575614.069226) can0 18C#3600
(1682575614.070919) can0 190#3A00
(1682575614.083572) can0 191#5800
(1682575614.083583) can0 199#5000
(1682575614.085828) can0 198#3D00
(1682575614.086213) can0 718#05
(1682575614.092894) can0 193#3B00
(1682575614.095237) can0 194#3600
(1682575614.095854) can0 18E#3800
(1682575614.096390) can0 18B#3A00
(1682575614.108779) can0 196#3600
(1682575614.112249) can0 18D#4D00
(1682575614.112284) can0 19A#4900
(1682575614.112389) can0 195#3600
(1682575614.112443) can0 71A#05
(1682575614.112710) can0 18A#7200
(1682575614.113488) can0 197#3400
(1682575614.115849) can0 192#4500
(1682575614.119496) can0 18F#2400
(1682575614.119507) can0 18C#2500
(1682575614.120816) can0 190#3C00
(1682575614.133654) can0 191#6800
(1682575614.133664) can0 199#5800
(1682575614.135838) can0 198#4000
(1682575614.143432) can0 193#3B00
(1682575614.145345) can0 194#3000
(1682575614.145897) can0 18E#3600
(1682575614.146613) can0 18B#3700
(1682575614.158952) can0 196#3000
(1682575614.162056) can0 18D#4D00
(1682575614.162521) can0 195#3D00
(1682575614.162549) can0 19A#4800
(1682575614.162836) can0 18A#7000
(1682575614.163538) can0 197#3500
(1682575614.166119) can0 192#4500
(1682575614.168563) can0 18F#2600
(1682575614.169453) can0 18C#2900
(1682575614.170815) can0 190#3E00
(1682575614.183586) can0 191#3900
(1682575614.183593) can0 199#5600
(1682575614.185930) can0 198#3600
(1682575614.193530) can0 193#3000
(1682575614.195376) can0 194#2F00
(1682575614.195573) can0 18B#3700
(1682575614.195917) can0 18E#2900
(1682575614.209404) can0 196#2F00
(1682575614.212535) can0 18D#4E00
(1682575614.212716) can0 195#3D00
(1682575614.212794) can0 19A#4500
(1682575614.212956) can0 18A#7100
(1682575614.213638) can0 197#3600
(1682575614.216429) can0 192#4700
(1682575614.218258) can0 18F#2700
(1682575614.219621) can0 18C#2800
(1682575614.220974) can0 190#2900
(1682575614.233760) can0 191#5A00
(1682575614.233770) can0 199#3700
(1682575614.235955) can0 198#3900
(1682575614.243595) can0 193#3000
(1682575614.245490) can0 194#2F00
(1682575614.245676) can0 18B#3600
(1682575614.245939) can0 18E#2800
(1682575614.259572) can0 196#3000
(1682575614.262549) can0 18D#4D00
(1682575614.262887) can0 195#3C00
(1682575614.263074) can0 18A#7300
(1682575614.263083) can0 19A#4400
(1682575614.263665) can0 197#3800
(1682575614.266203) can0 192#4900
(1682575614.268643) can0 18F#2B00
(1682575614.269250) can0 18C#2A00
(1682575614.270948) can0 190#4300
(1682575614.283782) can0 191#5C00
(1682575614.283793) can0 199#5A00
(1682575614.285950) can0 198#3700
(1682575614.293531) can0 193#3000
(1682575614.293566) can0 713#05
(1682575614.295713) can0 194#3000
(1682575614.295764) can0 18B#3400
(1682575614.295954) can0 18E#2A00
(1682575614.308731) can0 196#3600
(1682575614.312654) can0 18D#4D00
(1682575614.313056) can0 195#3C00
(1682575614.313182) can0 18A#7100
(1682575614.313366) can0 19A#4200
(1682575614.313626) can0 197#3900
(1682575614.316759) can0 192#4600
(1682575614.318747) can0 18F#2F00
(1682575614.319241) can0 18C#2E00
(1682575614.319915) can0 70C#05
(1682575614.321179) can0 190#4600
(1682575614.333890) can0 191#5E00
(1682575614.333900) can0 199#7900
(1682575614.336193) can0 198#3C00
(1682575614.343594) can0 193#3000
(1682575614.345589) can0 194#2900
(1682575614.345934) can0 18B#3400
(1682575614.345956) can0 18E#3900
(1682575614.358444) can0 196#4F00
(1682575614.362601) can0 19A#4000
(1682575614.362665) can0 18D#4D00
(1682575614.362776) can0 197#3A00
(1682575614.363220) can0 195#3A00
(1682575614.363247) can0 18A#4500
(1682575614.366551) can0 192#4B00
(1682575614.368356) can0 18F#2F00
(1682575614.369233) can0 18C#2E00
(1682575614.369839) can0 190#3000
(1682575614.384283) can0 191#5B00
(1682575614.384293) can0 199#8700
(1682575614.385982) can0 198#3F00
(1682575614.393661) can0 193#3700
(1682575614.395670) can0 194#2900
(1682575614.396004) can0 18B#3300
(1682575614.396030) can0 18E#2D00
(1682575614.408642) can0 196#3000
(1682575614.412951) can0 197#3C00
(1682575614.412961) can0 18D#4E00
(1682575614.412966) can0 19A#3F00
(1682575614.413423) can0 195#3A00
(1682575614.413432) can0 18A#6B00
(1682575614.416943) can0 192#4800
(1682575614.418635) can0 18F#3000
(1682575614.419277) can0 18C#2F00
(1682575614.419860) can0 190#2F00
(1682575614.434489) can0 191#5C00
(1682575614.434502) can0 199#5A00
(1682575614.434508) can0 711#05
(1682575614.435854) can0 198#4300
(1682575614.443773) can0 193#3100
(1682575614.445611) can0 194#2A00
(1682575614.446032) can0 18E#3700
(1682575614.446061) can0 18B#3100
(1682575614.458848) can0 196#3600
(1682575614.462921) can0 197#3E00
(1682575614.462931) can0 18D#4E00
(1682575614.463115) can0 19A#3C00
(1682575614.463248) can0 70D#05
(1682575614.463553) can0 18A#6A00
(1682575614.463562) can0 195#3B00
(1682575614.467397) can0 192#4600
(1682575614.468649) can0 18F#2900
(1682575614.469269) can0 18C#3400
(1682575614.469949) can0 190#1700
(1682575614.484546) can0 199#6800
(1682575614.484557) can0 191#5D00
(1682575614.485940) can0 198#3700
(1682575614.493671) can0 193#3600
(1682575614.495804) can0 194#2900
(1682575614.496066) can0 18E#3800
(1682575614.496094) can0 714#05
(1682575614.496219) can0 18B#3000
(1682575614.509313) can0 196#4B00
(1682575614.513057) can0 197#4000
(1682575614.513067) can0 18D#4E00
(1682575614.513355) can0 19A#3A00
(1682575614.513687) can0 18A#6900
(1682575614.513714) can0 195#3A00
(1682575614.514089) can0 70A#05
(1682575614.514097) can0 715#05
(1682575614.517501) can0 192#4400
(1682575614.518730) can0 18F#3100
(1682575614.519239) can0 18C#2400
(1682575614.520314) can0 190#1C00
(1682575614.534710) can0 199#6A00
(1682575614.534721) can0 191#5F00
(1682575614.534726) can0 719#05
(1682575614.536273) can0 198#3600
(1682575614.543635) can0 193#4100
(1682575614.546079) can0 194#2900
(1682575614.546090) can0 18E#3000
(1682575614.546308) can0 18B#3000
(1682575614.559361) can0 196#4800
(1682575614.563062) can0 197#4100
(1682575614.563118) can0 18D#4F00
(1682575614.563624) can0 19A#3900
(1682575614.563808) can0 18A#6600
(1682575614.563957) can0 195#3900
(1682575614.567651) can0 192#4600
(1682575614.568799) can0 18F#3000
(1682575614.569135) can0 70F#05
(1682575614.569274) can0 18C#2400
(1682575614.569982) can0 190#1E00
(1682575614.584726) can0 199#6700
(1682575614.584737) can0 191#5F00
(1682575614.586401) can0 198#3600
(1682575614.593785) can0 193#3600
(1682575614.596138) can0 194#2A00
(1682575614.596149) can0 18E#3000
(1682575614.596426) can0 18B#2E00
(1682575614.609591) can0 196#4800
(1682575614.613263) can0 197#4200
(1682575614.613273) can0 18D#4E00
(1682575614.613914) can0 19A#3700
(1682575614.613924) can0 18A#6500
(1682575614.614116) can0 195#3900
(1682575614.617777) can0 192#4300
(1682575614.618919) can0 18F#3000
(1682575614.619272) can0 18C#2700
(1682575614.620470) can0 190#2300
(1682575614.634595) can0 199#5E00
(1682575614.634606) can0 191#5F00
(1682575614.636428) can0 198#5400
(1682575614.643873) can0 193#3200
(1682575614.645870) can0 194#2B00
(1682575614.646160) can0 18E#3200
(1682575614.646527) can0 18B#2B00
(1682575614.659608) can0 196#4900
(1682575614.663284) can0 197#4400
(1682575614.663461) can0 18D#5000
(1682575614.664141) can0 18A#6300
(1682575614.664152) can0 19A#3600
(1682575614.664306) can0 195#3600
(1682575614.667902) can0 192#3800
(1682575614.668958) can0 18F#3000
(1682575614.669288) can0 18C#2700
(1682575614.670051) can0 190#2300
(1682575614.684763) can0 199#5E00
(1682575614.684774) can0 191#5F00
(1682575614.685972) can0 198#4900
(1682575614.693911) can0 193#3100
(1682575614.695188) can0 18E#3000
(1682575614.696352) can0 194#2A00
(1682575614.696647) can0 18B#3600
(1682575614.697098) can0 70B#05
(1682575614.709582) can0 196#4700
(1682575614.713107) can0 197#4600
(1682575614.713607) can0 18D#4F00
(1682575614.714493) can0 18A#6100
(1682575614.714504) can0 19A#3500
(1682575614.714509) can0 195#3800
(1682575614.718009) can0 192#4000
(1682575614.718061) can0 712#05
(1682575614.719198) can0 18F#3100
(1682575614.719233) can0 18C#2A00
(1682575614.720241) can0 190#2300
(1682575614.733971) can0 191#5F00
(1682575614.734799) can0 199#5C00
(1682575614.734965) can0 198#3800
(1682575614.743862) can0 193#3200
(1682575614.745497) can0 18E#2900
(1682575614.746127) can0 194#2B00
(1682575614.746715) can0 18B#3600
(1682575614.759730) can0 196#4500
(1682575614.763360) can0 197#4700
(1682575614.763734) can0 18D#6500
(1682575614.764315) can0 18A#5E00
(1682575614.764616) can0 19A#3300
(1682575614.764660) can0 195#3800
(1682575614.768406) can0 192#3E00
(1682575614.768867) can0 18F#3200
(1682575614.769260) can0 18C#2B00
(1682575614.770078) can0 190#2400
(1682575614.770606) can0 710#05
(1682575614.784097) can0 191#6000
(1682575614.785056) can0 199#6A00
(1682575614.785066) can0 198#3B00
(1682575614.794104) can0 193#3300
(1682575614.795438) can0 18E#3600
(1682575614.796391) can0 194#2C00
(1682575614.796858) can0 18B#2B00
(1682575614.809954) can0 196#4300
(1682575614.813498) can0 197#4800
(1682575614.813730) can0 717#05
(1682575614.813892) can0 18D#5200
(1682575614.814723) can0 18A#5C00
(1682575614.814867) can0 195#3700
(1682575614.814884) can0 19A#3200
(1682575614.818717) can0 192#3C00
(1682575614.818937) can0 18F#3100
(1682575614.819281) can0 18C#2E00
(1682575614.820495) can0 190#2700
(1682575614.834407) can0 191#6200
(1682575614.834890) can0 199#6A00
(1682575614.835021) can0 198#4400
(1682575614.842969) can0 193#3300
(1682575614.845282) can0 18E#3600
(1682575614.846513) can0 194#2D00
(1682575614.846955) can0 18B#3700
(1682575614.860390) can0 196#4300
(1682575614.863601) can0 197#4A00
(1682575614.864025) can0 18D#5000
(1682575614.864523) can0 18A#5A00
(1682575614.865048) can0 195#3600
(1682575614.865082) can0 19A#3000
(1682575614.868577) can0 192#3A00
(1682575614.869003) can0 18F#3200
(1682575614.869285) can0 18C#2F00
(1682575614.870137) can0 190#2900
(1682575614.884494) can0 191#5300
(1682575614.884998) can0 199#7500
(1682575614.885024) can0 198#4900
(1682575614.893035) can0 193#3300
(1682575614.895498) can0 18E#3600
(1682575614.896606) can0 194#2F00
(1682575614.897062) can0 18B#3600
(1682575614.910331) can0 196#3E00
(1682575614.910345) can0 716#05
(1682575614.913319) can0 18D#5000
(1682575614.913329) can0 197#4C00
(1682575614.914385) can0 195#3600
(1682575614.914634) can0 18A#5900
(1682575614.915654) can0 19A#2F00
(1682575614.918692) can0 192#3800
(1682575614.919054) can0 18F#3000
(1682575614.919287) can0 18C#3100
(1682575614.920460) can0 190#2C00
(1682575614.934139) can0 191#5300
(1682575614.935482) can0 198#3600
(1682575614.935492) can0 199#6500
(1682575614.943350) can0 193#3400
(1682575614.945439) can0 18E#3300
(1682575614.946549) can0 194#2E00
(1682575614.947286) can0 18B#4000
(1682575614.960602) can0 196#3D00
(1682575614.963444) can0 18D#4F00
(1682575614.963455) can0 197#4D00
(1682575614.964541) can0 195#3600
(1682575614.964746) can0 18A#5700
(1682575614.965698) can0 19A#2D00
(1682575614.968880) can0 192#3600
(1682575614.969121) can0 18F#3100
(1682575614.969316) can0 18C#3300
(1682575614.970309) can0 190#3000
(1682575614.984650) can0 191#6200
(1682575614.985095) can0 198#3C00
(1682575614.985240) can0 199#6800
(1682575614.993022) can0 193#3500
(1682575614.995502) can0 18E#3600
(1682575614.996631) can0 194#2E00
(1682575614.997400) can0 18B#2300
(1682575615.010823) can0 196#3C00
(1682575615.013452) can0 18D#5000
(1682575615.013463) can0 197#3E00
(1682575615.013872) can0 18A#5500
(1682575615.014536) can0 195#3600
(1682575615.015848) can0 19A#2D00
(1682575615.018572) can0 18C#3600
(1682575615.018928) can0 192#3400
(1682575615.019151) can0 18F#3200
(1682575615.020336) can0 190#3000
(1682575615.034806) can0 199#7900
(1682575615.034814) can0 191#6000
(1682575615.035118) can0 198#5300
(1682575615.043487) can0 193#3300
(1682575615.045596) can0 18E#3700
(1682575615.045606) can0 194#2E00
(1682575615.045930) can0 70E#05
(1682575615.047494) can0 18B#3E00
(1682575615.060789) can0 196#3B00
(1682575615.063820) can0 197#5000
(1682575615.063830) can0 18D#5100
(1682575615.063983) can0 18A#5400
(1682575615.064899) can0 195#3600
(1682575615.066608) can0 19A#2A00
(1682575615.068570) can0 18C#3600
(1682575615.069120) can0 192#3200
(1682575615.069179) can0 18F#3200
(1682575615.070512) can0 190#3100
(1682575615.084798) can0 199#7A00
(1682575615.084808) can0 191#6300
(1682575615.085143) can0 198#5700
(1682575615.085924) can0 718#05
(1682575615.093202) can0 193#3400
(1682575615.095650) can0 18E#3000
(1682575615.095660) can0 194#2E00
(1682575615.097773) can0 18B#3700
(1682575615.110921) can0 196#3700
(1682575615.113872) can0 197#5200
(1682575615.113882) can0 18D#5000
(1682575615.114111) can0 18A#5100
(1682575615.115058) can0 195#3600
(1682575615.116676) can0 19A#2900
(1682575615.116687) can0 71A#05
(1682575615.118611) can0 192#3000
(1682575615.118622) can0 18C#3700
(1682575615.119558) can0 18F#3100
(1682575615.120662) can0 190#3500
(1682575615.134778) can0 199#6000
(1682575615.134788) can0 191#6300
(1682575615.135149) can0 198#3600
(1682575615.143734) can0 193#3600
(1682575615.145629) can0 18E#3200
(1682575615.145773) can0 194#2C00
(1682575615.147782) can0 18B#3A00
(1682575615.160910) can0 196#3600
(1682575615.163783) can0 197#5400
(1682575615.163817) can0 18D#5200
(1682575615.164234) can0 18A#4E00
(1682575615.165352) can0 195#3500
(1682575615.166768) can0 19A#2700
(1682575615.168679) can0 18F#3100
(1682575615.168690) can0 18C#3600
(1682575615.168695) can0 192#2E00
(1682575615.170525) can0 190#3600
(1682575615.184951) can0 199#7400
(1682575615.184957) can0 191#6400
(1682575615.185185) can0 198#3600
(1682575615.193785) can0 193#3600
(1682575615.195669) can0 18E#3000
(1682575615.195858) can0 194#2E00
(1682575615.196827) can0 18B#3900
(1682575615.211066) can0 196#3600
(1682575615.213845) can0 197#4100
(1682575615.213967) can0 18D#5000
(1682575615.214320) can0 18A#4D00
(1682575615.215757) can0 195#3500
(1682575615.217253) can0 19A#2600
(1682575615.218575) can0 18C#3700
(1682575615.218585) can0 18F#3100
(1682575615.218616) can0 192#2C00
(1682575615.220686) can0 190#3900
(1682575615.234930) can0 199#3B00
(1682575615.234940) can0 191#6300
(1682575615.235206) can0 198#4100
(1682575615.243685) can0 193#3600
(1682575615.245629) can0 18E#3000
(1682575615.245937) can0 194#2F00
(1682575615.247183) can0 18B#3A00
(1682575615.261614) can0 196#3500
(1682575615.264023) can0 197#5600
(1682575615.264169) can0 18D#5100
(1682575615.264439) can0 18A#4B00
(1682575615.265673) can0 195#3500
(1682575615.267520) can0 19A#2400
(1682575615.268675) can0 18C#3E00
(1682575615.268685) can0 18F#3100
(1682575615.268837) can0 192#2A00
(1682575615.270634) can0 190#3B00
(1682575615.285432) can0 199#3B00
(1682575615.285443) can0 191#6500
(1682575615.285448) can0 198#3E00
(1682575615.293609) can0 193#3500
(1682575615.293897) can0 713#05
(1682575615.295738) can0 18E#2F00
(1682575615.296018) can0 194#2F00
(1682575615.297048) can0 18B#3700
(1682575615.310286) can0 196#3300
(1682575615.314154) can0 197#5800
(1682575615.314292) can0 18D#5300
(1682575615.314566) can0 18A#4A00
(1682575615.315732) can0 195#3500
(1682575615.317685) can0 19A#2300
(1682575615.318461) can0 18C#3900
(1682575615.318489) can0 18F#3100
(1682575615.318955) can0 70C#05
(1682575615.318980) can0 192#2A00
(1682575615.320689) can0 190#3D00
(1682575615.335074) can0 199#4000
(1682575615.335085) can0 191#6400
(1682575615.335246) can0 198#4000
(1682575615.343686) can0 193#3600
(1682575615.345668) can0 18E#3000
(1682575615.346102) can0 194#2900
(1682575615.347163) can0 18B#3600
(1682575615.360702) can0 196#3200
(1682575615.363102) can0 197#5900
(1682575615.364552) can0 18D#5100
(1682575615.364724) can0 18A#4800
(1682575615.365814) can0 195#3400
(1682575615.366736) can0 19A#2300
(1682575615.368689) can0 18C#3900
(1682575615.368699) can0 18F#3200
(1682575615.369204) can0 192#2A00
(1682575615.369439) can0 190#2200
(1682575615.385540) can0 199#6400
(1682575615.385551) can0 191#6500
(1682575615.385556) can0 198#5E00
(1682575615.393710) can0 193#3600
(1682575615.395728) can0 18E#3100
(1682575615.396182) can0 194#3200
(1682575615.397265) can0 18B#3600
(1682575615.410797) can0 196#3200
(1682575615.413221) can0 197#5B00
(1682575615.414747) can0 18D#5100
(1682575615.414779) can0 18A#4600
(1682575615.416334) can0 195#3400
(1682575615.416876) can0 19A#2400
(1682575615.418705) can0 18C#3B00
(1682575615.418713) can0 18F#3200
(1682575615.419580) can0 192#2500
(1682575615.419591) can0 190#3000
(1682575615.435189) can0 199#6900
(1682575615.435258) can0 191#4700
(1682575615.435310) can0 198#3E00
(1682575615.435464) can0 711#05
(1682575615.443547) can0 193#3700
(1682575615.445547) can0 18E#3300
(1682575615.446205) can0 194#3100
(1682575615.447205) can0 18B#6900
(1682575615.460682) can0 196#3800
(1682575615.462994) can0 197#4700
(1682575615.464676) can0 18D#5100
(1682575615.464886) can0 18A#4400
(1682575615.465015) can0 70D#05
(1682575615.466075) can0 195#3300
(1682575615.467048) can0 19A#4500
(1682575615.468308) can0 18C#3F00
(1682575615.468675) can0 18F#3200
(1682575615.469457) can0 190#3200
(1682575615.469508) can0 192#2400
(1682575615.485683) can0 198#4800
(1682575615.485690) can0 199#3F00
(1682575615.485692) can0 191#4600
(1682575615.493961) can0 193#3700
(1682575615.495865) can0 18E#3400
(1682575615.496419) can0 194#3300
(1682575615.496819) can0 714#05
(1682575615.497429) can0 18B#3700
(1682575615.511263) can0 196#3000
(1682575615.513328) can0 197#5E00
(1682575615.514825) can0 18D#5100
(1682575615.515000) can0 18A#4300
(1682575615.515619) can0 70A#05
(1682575615.516677) can0 195#3300
(1682575615.516685) can0 715#05
(1682575615.517527) can0 19A#4200
(1682575615.518514) can0 18C#3D00
(1682575615.518720) can0 18F#3200
(1682575615.519539) can0 190#2300
(1682575615.519686) can0 192#2300
(1682575615.535692) can0 198#6A00
(1682575615.535701) can0 199#6900
(1682575615.535703) can0 191#6200
(1682575615.535875) can0 719#05
(1682575615.543901) can0 193#3600
(1682575615.545774) can0 18E#3A00
(1682575615.546426) can0 194#3100
(1682575615.547628) can0 18B#6700
(1682575615.561434) can0 196#3600
(1682575615.563357) can0 197#6000
(1682575615.565428) can0 18D#4F00
(1682575615.565439) can0 18A#4000
(1682575615.566680) can0 195#3300
(1682575615.567746) can0 19A#3F00
(1682575615.568408) can0 18C#4200
(1682575615.568786) can0 18F#3200
(1682575615.569336) can0 70F#05
(1682575615.569543) can0 190#2200
(1682575615.569929) can0 192#2100
(1682575615.585812) can0 198#4400
(1682575615.585823) can0 199#6E00
(1682575615.585828) can0 191#5D00
