(1682489978.627243) can0 18C#5000
(1682489978.628271) can0 19A#3700
(1682489978.629106) can0 194#2D00
(1682489978.629990) can0 18F#2200
(1682489978.631335) can0 198#3B00
(1682489978.635144) can0 193#2200
(1682489978.636255) can0 711#05
(1682489978.636273) can0 191#1F00
(1682489978.642153) can0 18B#3700
(1682489978.650658) can0 18D#6100
(1682489978.651672) can0 18A#4200
(1682489978.655750) can0 199#3200
(1682489978.657601) can0 18E#3000
(1682489978.663756) can0 192#2400
(1682489978.668372) can0 197#2B00
(1682489978.670788) can0 716#05
(1682489978.670794) can0 196#6700
(1682489978.673752) can0 190#3400
(1682489978.674324) can0 195#2700
(1682489978.677292) can0 18C#5200
(1682489978.678534) can0 19A#3A00
(1682489978.679205) can0 194#2F00
(1682489978.680701) can0 18F#2100
(1682489978.681065) can0 198#4000
(1682489978.685145) can0 193#2300
(1682489978.685162) can0 191#1E00
(1682489978.692447) can0 18B#3000
(1682489978.700750) can0 18D#6000
(1682489978.701816) can0 18A#4100
(1682489978.705756) can0 199#3200
(1682489978.707601) can0 18E#5300
(1682489978.714083) can0 192#5B00
(1682489978.718762) can0 197#2A00
(1682489978.720627) can0 196#4C00
(1682489978.723476) can0 190#3400
(1682489978.724511) can0 195#2300
(1682489978.726955) can0 18C#5300
(1682489978.728831) can0 19A#3800
(1682489978.728939) can0 194#2D00
(1682489978.730086) can0 18F#2100
(1682489978.731333) can0 198#4100
(1682489978.735691) can0 193#2A00
(1682489978.735708) can0 191#1D00
(1682489978.742760) can0 18B#2900
(1682489978.750829) can0 70D#05
(1682489978.750846) can0 18D#6000
(1682489978.752363) can0 18A#3F00
(1682489978.755819) can0 199#8400
(1682489978.757633) can0 18E#5300
(1682489978.764052) can0 192#5A00
(1682489978.768762) can0 197#3800
(1682489978.770748) can0 196#4E00
(1682489978.773800) can0 190#3500
(1682489978.774792) can0 195#2200
(1682489978.776971) can0 18C#5500
(1682489978.779560) can0 19A#3500
(1682489978.779576) can0 194#2C00
(1682489978.780313) can0 18F#2100
(1682489978.781737) can0 198#1B00
(1682489978.785757) can0 193#2A00
(1682489978.785774) can0 191#1C00
(1682489978.792659) can0 18B#3600
(1682489978.800146) can0 18D#5E00
(1682489978.802135) can0 18A#4100
(1682489978.806084) can0 199#3700
(1682489978.807653) can0 18E#4A00
(1682489978.814725) can0 192#5A00
(1682489978.818756) can0 197#2A00
(1682489978.820441) can0 196#2300
(1682489978.823592) can0 190#3600
(1682489978.825045) can0 195#2300
(1682489978.827687) can0 18C#5600
(1682489978.829753) can0 19A#3200
(1682489978.829769) can0 194#2B00
(1682489978.830493) can0 18F#2000
(1682489978.831734) can0 198#1D00
(1682489978.835345) can0 193#2500
(1682489978.835362) can0 191#1D00
(1682489978.842706) can0 18B#3700
(1682489978.850598) can0 18D#5D00
(1682489978.852653) can0 18A#4000
(1682489978.856150) can0 199#3700
(1682489978.857661) can0 18E#3600
(1682489978.864758) can0 192#3900
(1682489978.868775) can0 197#3600
(1682489978.870760) can0 196#2300
(1682489978.873545) can0 190#3700
(1682489978.875584) can0 195#2100
(1682489978.877691) can0 18C#5700
(1682489978.879761) can0 194#2A00
(1682489978.879778) can0 19A#3100
(1682489978.880526) can0 18F#2300
(1682489978.881329) can0 198#1F00
(1682489978.885775) can0 193#2500
(1682489978.885792) can0 191#1B00
(1682489978.893352) can0 18B#3700
(1682489978.900055) can0 18D#5D00
(1682489978.902128) can0 18A#3F00
(1682489978.906148) can0 199#8500
(1682489978.907687) can0 18E#3600
(1682489978.914769) can0 192#5800
(1682489978.918945) can0 197#2900
(1682489978.920754) can0 196#2400
(1682489978.923770) can0 190#3700
(1682489978.925335) can0 195#2000
(1682489978.927312) can0 18C#5900
(1682489978.929524) can0 194#2A00
(1682489978.929540) can0 19A#2C00
(1682489978.930318) can0 18F#1F00
(1682489978.931737) can0 198#2200
(1682489978.935777) can0 193#2600
(1682489978.935794) can0 191#1D00
(1682489978.943158) can0 18B#3700
(1682489978.950426) can0 18D#5C00
(1682489978.952750) can0 18A#3F00
(1682489978.956187) can0 199#3600
(1682489978.957314) can0 18E#3700
(1682489978.964765) can0 192#5800
(1682489978.969096) can0 197#3600
(1682489978.970925) can0 196#2400
(1682489978.973594) can0 190#3700
(1682489978.975339) can0 195#2200
(1682489978.977336) can0 18C#3700
(1682489978.979591) can0 194#2900
(1682489978.979703) can0 19A#2A00
(1682489978.980454) can0 70F#05
(1682489978.980471) can0 18F#1F00
(1682489978.981337) can0 198#2400
(1682489978.985498) can0 193#2600
(1682489978.985765) can0 191#1C00
(1682489978.993155) can0 18B#2D00
(1682489979.000763) can0 18D#5B00
(1682489979.002765) can0 18A#4000
(1682489979.006767) can0 199#3700
(1682489979.006967) can0 18E#3900
(1682489979.014948) can0 192#5600
(1682489979.018814) can0 197#3400
(1682489979.021153) can0 196#2300
(1682489979.023595) can0 190#3800
(1682489979.025397) can0 195#2300
(1682489979.027340) can0 18C#3000
(1682489979.029565) can0 18F#1F00
(1682489979.029582) can0 194#2900
(1682489979.029968) can0 19A#3700
(1682489979.031382) can0 198#2600
(1682489979.035780) can0 193#2700
(1682489979.035815) can0 191#1C00
(1682489979.043066) can0 18B#3A00
(1682489979.050769) can0 18D#5A00
(1682489979.052460) can0 18A#3F00
(1682489979.056407) can0 199#3700
(1682489979.057213) can0 18E#7100
(1682489979.065164) can0 192#5500
(1682489979.069166) can0 197#3600
(1682489979.071617) can0 196#2200
(1682489979.073810) can0 190#3900
(1682489979.075805) can0 195#2300
(1682489979.077684) can0 70C#05
(1682489979.077701) can0 18C#5C00
(1682489979.079779) can0 18F#1E00
(1682489979.079796) can0 194#2900
(1682489979.080364) can0 19A#2300
(1682489979.081345) can0 198#2900
(1682489979.085770) can0 193#2600
(1682489979.085960) can0 191#1C00
(1682489979.093759) can0 18B#3000
(1682489979.100922) can0 18D#5A00
(1682489979.102668) can0 18A#3F00
(1682489979.106442) can0 199#3700
(1682489979.107338) can0 18E#3B00
(1682489979.115276) can0 192#5500
(1682489979.119651) can0 197#3200
(1682489979.121329) can0 196#2200
(1682489979.123830) can0 190#3A00
(1682489979.125808) can0 195#1B00
(1682489979.126014) can0 18C#2F00
(1682489979.129924) can0 18F#1E00
(1682489979.129941) can0 194#2700
(1682489979.130708) can0 19A#3500
(1682489979.131432) can0 198#2C00
(1682489979.135825) can0 193#2800
(1682489979.136088) can0 191#2C00
(1682489979.143349) can0 18B#3800
(1682489979.151166) can0 18D#5900
(1682489979.152772) can0 18A#3F00
(1682489979.156775) can0 199#3700
(1682489979.157063) can0 18E#3700
(1682489979.165766) can0 192#5300
(1682489979.169757) can0 197#3600
(1682489979.171766) can0 196#2200
(1682489979.173827) can0 190#3B00
(1682489979.175895) can0 195#2300
(1682489979.176036) can0 18C#3100
(1682489979.179843) can0 18F#2200
(1682489979.179859) can0 194#2700
(1682489979.181188) can0 19A#3400
(1682489979.181204) can0 198#2E00
(1682489979.185844) can0 713#05
(1682489979.185861) can0 193#2800
(1682489979.186216) can0 191#1C00
(1682489979.193378) can0 18B#3500
(1682489979.201164) can0 18D#5800
(1682489979.203086) can0 18A#3F00
(1682489979.206837) can0 199#3700
(1682489979.207093) can0 18E#2500
(1682489979.215777) can0 192#5200
(1682489979.219773) can0 197#3000
(1682489979.221665) can0 196#2200
(1682489979.223743) can0 190#3C00
(1682489979.226185) can0 18C#3300
(1682489979.226202) can0 195#2000
(1682489979.230111) can0 18F#1D00
(1682489979.230128) can0 194#2500
(1682489979.231672) can0 19A#3300
(1682489979.231689) can0 718#05
(1682489979.231694) can0 198#3000
(1682489979.234804) can0 193#2700
(1682489979.236430) can0 191#2300
(1682489979.243577) can0 18B#3600
(1682489979.251774) can0 18D#5700
(1682489979.253389) can0 18A#3F00
(1682489979.257002) can0 199#3700
(1682489979.257046) can0 18E#2600
(1682489979.265606) can0 192#5200
(1682489979.269775) can0 197#3000
(1682489979.271772) can0 196#2200
(1682489979.273943) can0 190#3C00
(1682489979.276371) can0 18C#2200
(1682489979.276388) can0 715#05
(1682489979.276393) can0 195#1F00
(1682489979.280173) can0 18F#1C00
(1682489979.280189) can0 714#05
(1682489979.280192) can0 194#2400
(1682489979.280195) can0 198#3300
(1682489979.281756) can0 19A#3200
(1682489979.285074) can0 193#2800
(1682489979.286674) can0 191#2D00
(1682489979.293685) can0 70B#05
(1682489979.293702) can0 18B#3400
(1682489979.301781) can0 18D#5700
(1682489979.302877) can0 18A#3E00
(1682489979.307484) can0 199#3800
(1682489979.307501) can0 18E#2900
(1682489979.315934) can0 192#4F00
(1682489979.319790) can0 717#05
(1682489979.319808) can0 197#3000
(1682489979.321931) can0 196#2200
(1682489979.324095) can0 190#3D00
(1682489979.325763) can0 195#1D00
(1682489979.326018) can0 18C#2500
(1682489979.329374) can0 194#2300
(1682489979.329863) can0 18F#3600
(1682489979.330120) can0 198#3600
(1682489979.331764) can0 19A#3100
(1682489979.335156) can0 193#2900
(1682489979.336763) can0 191#2B00
(1682489979.342750) can0 18B#5300
(1682489979.351787) can0 18D#5600
(1682489979.353706) can0 18A#3E00
(1682489979.357245) can0 199#3700
(1682489979.357262) can0 18E#2900
(1682489979.366076) can0 712#05
(1682489979.366093) can0 192#5000
(1682489979.368819) can0 197#4B00
(1682489979.372180) can0 196#2300
(1682489979.374165) can0 190#3E00
(1682489979.375815) can0 195#1B00
(1682489979.376042) can0 18C#2900
(1682489979.379770) can0 194#2300
(1682489979.379834) can0 18F#3600
(1682489979.380113) can0 198#3600
(1682489979.382397) can0 19A#3100
(1682489979.384947) can0 193#2800
(1682489979.387383) can0 191#2900
(1682489979.392949) can0 18B#3800
(1682489979.401779) can0 18D#5500
(1682489979.403772) can0 70A#05
(1682489979.403790) can0 18A#3F00
(1682489979.407296) can0 199#3A00
(1682489979.407314) can0 18E#2C00
(1682489979.415277) can0 192#4E00
(1682489979.418684) can0 197#3000
(1682489979.422076) can0 196#2200
(1682489979.424065) can0 190#3F00
(1682489979.426071) can0 195#3600
(1682489979.426089) can0 18C#2900
(1682489979.429782) can0 194#2300
(1682489979.429984) can0 18F#3600
(1682489979.430122) can0 198#3700
(1682489979.432045) can0 19A#2F00
(1682489979.435601) can0 193#2800
(1682489979.437394) can0 191#2A00
(1682489979.443073) can0 18B#5D00
(1682489979.451833) can0 18D#5400
(1682489979.452242) can0 18A#3E00
(1682489979.457788) can0 199#3C00
(1682489979.457805) can0 18E#2F00
(1682489979.465783) can0 192#4E00
(1682489979.468838) can0 197#3000
(1682489979.472373) can0 196#2300
(1682489979.474071) can0 710#05
(1682489979.474089) can0 190#4000
(1682489979.476246) can0 195#3000
(1682489979.476263) can0 18C#2E00
(1682489979.479824) can0 194#2200
(1682489979.480019) can0 18F#1C00
(1682489979.480091) can0 198#3900
(1682489979.482450) can0 19A#2E00
(1682489979.485352) can0 193#2800
(1682489979.487614) can0 191#1600
(1682489979.493166) can0 18B#2B00
(1682489979.501832) can0 18D#5500
(1682489979.502418) can0 18A#3D00
(1682489979.507448) can0 719#05
(1682489979.507466) can0 18E#2F00
(1682489979.507472) can0 199#3B00
(1682489979.515677) can0 192#4D00
(1682489979.519330) can0 197#3000
(1682489979.522211) can0 196#2300
(1682489979.523169) can0 190#4100
(1682489979.526360) can0 18C#2F00
(1682489979.526377) can0 195#3A00
(1682489979.529788) can0 194#2300
(1682489979.530070) can0 18F#3600
(1682489979.530102) can0 198#4000
(1682489979.532689) can0 71A#05
(1682489979.532706) can0 19A#2C00
(1682489979.535662) can0 193#2800
(1682489979.537142) can0 191#2400
(1682489979.543276) can0 18B#5C00
(1682489979.551897) can0 18D#5300
(1682489979.552659) can0 18A#3E00
(1682489979.556798) can0 199#3B00
(1682489979.557572) can0 18E#3200
(1682489979.565786) can0 192#4A00
(1682489979.569111) can0 197#3500
(1682489979.572600) can0 196#2200
(1682489979.572872) can0 190#4200
(1682489979.576683) can0 18C#3000
(1682489979.576700) can0 195#3A00
(1682489979.579687) can0 194#2200
(1682489979.580228) can0 198#1B00
(1682489979.580245) can0 18F#3600
(1682489979.581931) can0 19A#2C00
(1682489979.585785) can0 193#2A00
(1682489979.587772) can0 191#2200
(1682489979.593782) can0 18B#2900
(1682489979.602796) can0 18D#5200
(1682489979.602813) can0 18A#3E00
(1682489979.606789) can0 199#3D00
(1682489979.607552) can0 70E#05
(1682489979.607569) can0 18E#3400
(1682489979.615947) can0 192#4800
(1682489979.618790) can0 197#4300
(1682489979.622789) can0 196#2200
(1682489979.622940) can0 190#4200
(1682489979.626826) can0 18C#3300
(1682489979.626832) can0 195#3300
(1682489979.629791) can0 194#2200
(1682489979.630152) can0 198#1B00
(1682489979.630167) can0 18F#3600
(1682489979.632216) can0 19A#2A00
(1682489979.635782) can0 193#2900
(1682489979.637783) can0 711#05
(1682489979.637799) can0 191#2200
(1682489979.643784) can0 18B#2900
(1682489979.652796) can0 18D#5100
(1682489979.652813) can0 18A#3F00
(1682489979.656793) can0 18E#3500
(1682489979.656811) can0 199#3C00
(1682489979.665832) can0 192#4500
(1682489979.669176) can0 197#3000
(1682489979.672871) can0 716#05
(1682489979.672888) can0 196#2400
(1682489979.672890) can0 190#4300
(1682489979.676789) can0 18C#3600
(1682489979.676807) can0 195#3100
(1682489979.679836) can0 194#2300
(1682489979.680151) can0 198#1B00
(1682489979.680184) can0 18F#3700
(1682489979.682787) can0 19A#2900
(1682489979.685781) can0 193#2900
(1682489979.686552) can0 191#2000
(1682489979.693791) can0 18B#4B00
(1682489979.702793) can0 18D#5100
(1682489979.702810) can0 18A#3F00
(1682489979.706797) can0 18E#3600
(1682489979.706814) can0 199#3E00
(1682489979.716180) can0 192#4200
(1682489979.719294) can0 197#3100
(1682489979.722076) can0 196#2200
(1682489979.723311) can0 190#4400
(1682489979.726121) can0 18C#3700
(1682489979.727026) can0 195#3900
(1682489979.730122) can0 194#2300
(1682489979.730139) can0 198#3E00
(1682489979.730317) can0 18F#3600
(1682489979.732689) can0 19A#2900
(1682489979.735791) can0 193#2900
(1682489979.736728) can0 191#2200
(1682489979.743609) can0 18B#4E00
(1682489979.752736) can0 70D#05
(1682489979.752745) can0 18D#5000
(1682489979.752858) can0 18A#3E00
(1682489979.756425) can0 18E#3900
(1682489979.756730) can0 199#3E00
(1682489979.766789) can0 192#4100
(1682489979.769787) can0 197#3000
(1682489979.772187) can0 196#2400
(1682489979.773743) can0 190#4500
(1682489979.776392) can0 18C#3900
(1682489979.777079) can0 195#3900
(1682489979.780080) can0 194#1F00
(1682489979.780118) can0 198#1C00
(1682489979.780378) can0 18F#3800
(1682489979.782854) can0 19A#2900
(1682489979.785838) can0 193#2A00
(1682489979.786918) can0 191#2800
(1682489979.793835) can0 18B#4600
(1682489979.802385) can0 18D#5000
(1682489979.803286) can0 18A#3900
(1682489979.806641) can0 18E#3B00
(1682489979.806845) can0 199#4000
(1682489979.816794) can0 192#3F00
(1682489979.819791) can0 197#3000
(1682489979.822758) can0 196#2500
(1682489979.823072) can0 190#4600
(1682489979.826695) can0 18C#3600
(1682489979.827106) can0 195#3600
(1682489979.830127) can0 194#1C00
(1682489979.830144) can0 198#1B00
(1682489979.830479) can0 18F#3600
(1682489979.833179) can0 19A#2800
(1682489979.835683) can0 193#2900
(1682489979.837035) can0 191#3700
(1682489979.843858) can0 18B#5400
(1682489979.852170) can0 18D#4E00
(1682489979.853826) can0 18A#3800
(1682489979.856539) can0 18E#3E00
(1682489979.857058) can0 199#3F00
(1682489979.866800) can0 192#3D00
(1682489979.869793) can0 197#3000
(1682489979.872788) can0 196#2400
(1682489979.873090) can0 190#4700
(1682489979.876213) can0 18C#3600
(1682489979.877376) can0 195#3600
(1682489979.880185) can0 194#1D00
(1682489979.880201) can0 198#1C00
(1682489979.880525) can0 18F#3A00
(1682489979.883787) can0 19A#2500
(1682489979.885864) can0 193#2900
(1682489979.887151) can0 191#3600
(1682489979.894077) can0 18B#3400
(1682489979.902194) can0 18D#4D00
(1682489979.903796) can0 18A#3B00
(1682489979.906663) can0 18E#3600
(1682489979.907064) can0 199#4000
(1682489979.916932) can0 192#3A00
(1682489979.919791) can0 197#3600
(1682489979.922796) can0 196#2400
(1682489979.923142) can0 190#4700
(1682489979.926125) can0 18C#3600
(1682489979.927562) can0 195#3200
(1682489979.930123) can0 194#1B00
(1682489979.930141) can0 198#1D00
(1682489979.930829) can0 18F#3C00
(1682489979.933794) can0 19A#2400
(1682489979.936071) can0 193#2A00
(1682489979.937265) can0 191#3500
(1682489979.944117) can0 18B#3600
(1682489979.952373) can0 18D#4B00
(1682489979.953458) can0 18A#3600
(1682489979.956624) can0 18E#4100
(1682489979.957369) can0 199#4100
(1682489979.967115) can0 192#3700
(1682489979.969604) can0 197#3600
(1682489979.972684) can0 196#2500
(1682489979.973275) can0 190#4800
(1682489979.976791) can0 18C#3600
(1682489979.977860) can0 195#2F00
(1682489979.980810) can0 194#3B00
(1682489979.980828) can0 198#1D00
(1682489979.980830) can0 70F#05
(1682489979.980833) can0 18F#3600
(1682489979.983802) can0 19A#2300
(1682489979.986091) can0 193#2900
(1682489979.987378) can0 191#3200
(1682489979.994191) can0 18B#3900
(1682489980.002801) can0 18D#4900
(1682489980.003623) can0 18A#3A00
(1682489980.006800) can0 18E#4200
(1682489980.007537) can0 199#4300
(1682489980.017280) can0 192#3600
(1682489980.019792) can0 197#3000
(1682489980.023307) can0 196#2700
(1682489980.023324) can0 190#4900
(1682489980.026805) can0 18C#3900
(1682489980.028459) can0 195#3100
(1682489980.029786) can0 18F#2F00
(1682489980.030179) can0 194#3B00
(1682489980.030197) can0 198#1E00
(1682489980.034502) can0 19A#2300
(1682489980.036179) can0 193#2A00
(1682489980.037786) can0 191#3100
(1682489980.044292) can0 18B#3C00
(1682489980.052659) can0 18D#4700
(1682489980.053864) can0 18A#3800
(1682489980.056800) can0 18E#4400
(1682489980.057526) can0 199#4300
(1682489980.067702) can0 192#3300
(1682489980.069753) can0 197#3000
(1682489980.073108) can0 196#2600
(1682489980.073263) can0 190#3E00
(1682489980.076262) can0 70C#05
(1682489980.076281) can0 18C#3A00
(1682489980.077884) can0 195#3000
(1682489980.080096) can0 18F#3600
(1682489980.080160) can0 198#1E00
(1682489980.080273) can0 194#3E00
(1682489980.084366) can0 19A#2300
(1682489980.085875) can0 193#2900
(1682489980.087462) can0 191#3000
(1682489980.094138) can0 18B#3D00
(1682489980.102821) can0 18D#4600
(1682489980.104031) can0 18A#3700
(1682489980.106616) can0 18E#3C00
(1682489980.107665) can0 199#4400
(1682489980.117382) can0 192#3100
(1682489980.119997) can0 197#2F00
(1682489980.123600) can0 196#2800
(1682489980.123617) can0 190#2400
(1682489980.125793) can0 18C#4C00
(1682489980.128800) can0 195#3000
(1682489980.130556) can0 18F#3B00
(1682489980.130572) can0 198#1400
(1682489980.130578) can0 194#3800
(1682489980.134809) can0 19A#3F00
(1682489980.136734) can0 193#2B00
(1682489980.137591) can0 191#2E00
(1682489980.144792) can0 18B#4000
(1682489980.153132) can0 18D#4300
(1682489980.154033) can0 18A#3A00
(1682489980.156742) can0 18E#4900
(1682489980.157789) can0 199#4500
(1682489980.167718) can0 192#2F00
(1682489980.170134) can0 197#3600
(1682489980.173317) can0 196#2800
(1682489980.173333) can0 190#2400
(1682489980.175802) can0 18C#4100
(1682489980.178808) can0 195#2F00
(1682489980.180507) can0 18F#3000
(1682489980.180524) can0 198#1C00
(1682489980.180530) can0 194#3800
(1682489980.184708) can0 19A#3C00
(1682489980.186679) can0 713#05
(1682489980.186695) can0 193#2900
(1682489980.187734) can0 191#2F00
(1682489980.194520) can0 18B#4100
(1682489980.203193) can0 18D#4100
(1682489980.204116) can0 18A#3B00
(1682489980.206804) can0 18E#4B00
(1682489980.208259) can0 199#4500
(1682489980.217872) can0 192#2F00
(1682489980.220194) can0 197#3600
(1682489980.223852) can0 196#2700
(1682489980.223860) can0 190#2500
(1682489980.225797) can0 18C#4400
(1682489980.228557) can0 195#3300
(1682489980.230129) can0 18F#3600
(1682489980.230162) can0 718#05
(1682489980.230226) can0 198#2100
(1682489980.230517) can0 194#2400
(1682489980.235061) can0 19A#3700
(1682489980.235101) can0 193#2900
(1682489980.237894) can0 191#2B00
(1682489980.244562) can0 18B#4400
(1682489980.253306) can0 18D#3E00
(1682489980.254254) can0 18A#3700
(1682489980.256855) can0 18E#4E00
(1682489980.258116) can0 199#4600
(1682489980.268474) can0 192#2C00
(1682489980.270681) can0 197#3100
(1682489980.273808) can0 196#2800
(1682489980.273825) can0 190#2500
(1682489980.275846) can0 18C#4400
(1682489980.278762) can0 715#05
(1682489980.278780) can0 195#3000
(1682489980.279535) can0 198#2000
(1682489980.280243) can0 18F#3C00
(1682489980.280527) can0 714#05
(1682489980.280542) can0 194#1600
(1682489980.285201) can0 19A#3400
(1682489980.285219) can0 193#2800
(1682489980.288200) can0 191#3F00
(1682489980.294819) can0 70B#05
(1682489980.294836) can0 18B#4700
(1682489980.303807) can0 18D#3D00
(1682489980.304155) can0 18A#3600
(1682489980.306812) can0 18E#5000
(1682489980.308479) can0 199#4800
(1682489980.318688) can0 192#2B00
(1682489980.320673) can0 717#05
(1682489980.320690) can0 197#3000
(1682489980.323712) can0 196#2700
(1682489980.323729) can0 190#2800
(1682489980.325847) can0 18C#4600
(1682489980.328109) can0 195#2D00
(1682489980.329388) can0 198#1C00
(1682489980.329626) can0 194#2200
(1682489980.330080) can0 18F#2F00
(1682489980.335459) can0 19A#3200
(1682489980.335476) can0 193#2800
(1682489980.338209) can0 191#4000
(1682489980.343873) can0 18B#4900
(1682489980.353808) can0 18D#3B00
(1682489980.354600) can0 18A#3A00
(1682489980.356873) can0 18E#5100
(1682489980.357983) can0 199#4800
(1682489980.368308) can0 712#05
(1682489980.368325) can0 192#3500
(1682489980.369788) can0 197#3700
(1682489980.373758) can0 190#2900
(1682489980.373765) can0 196#2800
(1682489980.375333) can0 18C#4A00
(1682489980.378203) can0 195#2F00
(1682489980.379804) can0 198#1D00
(1682489980.379821) can0 194#3600
(1682489980.380146) can0 18F#3000
(1682489980.385818) can0 193#2500
(1682489980.385836) can0 19A#2E00
(1682489980.388319) can0 191#4100
(1682489980.393974) can0 18B#4B00
(1682489980.403738) can0 18D#3900
(1682489980.404520) can0 70A#05
(1682489980.404538) can0 18A#3A00
(1682489980.406868) can0 18E#5400
(1682489980.408382) can0 199#4900
(1682489980.417813) can0 192#3200
(1682489980.419801) can0 197#3600
(1682489980.423715) can0 190#2C00
(1682489980.423731) can0 196#2A00
(1682489980.425703) can0 18C#4C00
(1682489980.428712) can0 195#3000
(1682489980.429470) can0 198#2000
(1682489980.429797) can0 194#1900
(1682489980.430477) can0 18F#3A00
(1682489980.435815) can0 193#2300
(1682489980.435831) can0 19A#2B00
(1682489980.438810) can0 191#4100
(1682489980.444211) can0 18B#4E00
(1682489980.453694) can0 18A#3A00
(1682489980.453703) can0 18D#3600
(1682489980.456871) can0 18E#5600
(1682489980.458807) can0 199#4900
(1682489980.467650) can0 192#3000
(1682489980.469752) can0 197#3100
(1682489980.473825) can0 710#05
(1682489980.473841) can0 190#2E00
(1682489980.473844) can0 196#2900
(1682489980.475801) can0 18C#6100
(1682489980.478815) can0 195#3000
(1682489980.479367) can0 198#2200
(1682489980.480024) can0 194#1C00
(1682489980.480269) can0 18F#3A00
(1682489980.485723) can0 193#2400
(1682489980.485925) can0 19A#2900
(1682489980.488828) can0 191#4300
(1682489980.493896) can0 18B#5000
(1682489980.503869) can0 18A#3A00
(1682489980.503875) can0 18D#3500
(1682489980.506974) can0 18E#5800
(1682489980.508406) can0 719#05
(1682489980.508424) can0 199#4B00
(1682489980.517772) can0 192#3000
(1682489980.519714) can0 197#3000
(1682489980.522695) can0 190#2F00
(1682489980.524372) can0 196#2900
(1682489980.525389) can0 18C#3600
(1682489980.528821) can0 195#2E00
(1682489980.529551) can0 198#2300
(1682489980.530062) can0 194#1F00
(1682489980.530321) can0 18F#2300
(1682489980.535826) can0 193#2200
(1682489980.536128) can0 71A#05
(1682489980.536155) can0 19A#2300
(1682489980.538821) can0 191#4300
(1682489980.544320) can0 18B#5200
(1682489980.554073) can0 18A#3800
(1682489980.554091) can0 18D#3300
(1682489980.557014) can0 18E#5B00
(1682489980.557388) can0 199#4B00
(1682489980.567870) can0 192#3600
(1682489980.569671) can0 197#3600
(1682489980.572974) can0 190#3100
(1682489980.574811) can0 196#2A00
(1682489980.575121) can0 18C#5500
(1682489980.579069) can0 195#2B00
(1682489980.579288) can0 198#2400
(1682489980.580734) can0 194#1C00
(1682489980.580751) can0 18F#2400
(1682489980.585833) can0 19A#2000
(1682489980.585850) can0 193#2200
(1682489980.588816) can0 191#4400
(1682489980.594724) can0 18B#5100
(1682489980.604115) can0 18A#3800
(1682489980.604132) can0 18D#3100
(1682489980.606893) can0 70E#05
(1682489980.606910) can0 18E#5D00
(1682489980.607693) can0 199#4C00
(1682489980.618132) can0 192#3600
(1682489980.619804) can0 197#3300
(1682489980.623149) can0 190#3300
(1682489980.624713) can0 196#2A00
(1682489980.625233) can0 18C#3500
(1682489980.629216) can0 195#2900
(1682489980.629250) can0 198#2400
(1682489980.630812) can0 194#1D00
(1682489980.630828) can0 18F#2300
(1682489980.635984) can0 19A#2A00
(1682489980.636001) can0 193#2200
(1682489980.638755) can0 711#05
(1682489980.638772) can0 191#4500
(1682489980.644413) can0 18B#5000
(1682489980.654164) can0 18A#3600
(1682489980.654181) can0 18D#2F00
(1682489980.656131) can0 18E#5E00
(1682489980.657815) can0 199#4D00
(1682489980.668817) can0 192#3700
(1682489980.669760) can0 197#3500
(1682489980.673473) can0 190#3500
(1682489980.674646) can0 716#05
(1682489980.674663) can0 196#2B00
(1682489980.675405) can0 18C#4E00
(1682489980.679207) can0 195#2800
(1682489980.679247) can0 198#2300
(1682489980.680801) can0 194#2200
(1682489980.680819) can0 18F#3E00
(1682489980.686224) can0 193#2200
(1682489980.686242) can0 19A#2C00
(1682489980.688036) can0 191#4600
(1682489980.694827) can0 18B#5000
(1682489980.704413) can0 18A#3800
(1682489980.704429) can0 18D#2D00
(1682489980.706067) can0 18E#3800
(1682489980.707981) can0 199#4D00
(1682489980.718827) can0 192#3400
(1682489980.720324) can0 197#3600
(1682489980.723222) can0 190#3700
(1682489980.723617) can0 196#2A00
(1682489980.725408) can0 18C#3700
(1682489980.729729) can0 195#2700
(1682489980.729747) can0 198#2400
(1682489980.730370) can0 194#1E00
(1682489980.730587) can0 18F#2300
(1682489980.736228) can0 193#2400
(1682489980.736245) can0 19A#2900
(1682489980.738129) can0 191#4700
(1682489980.744826) can0 18B#4F00
(1682489980.754450) can0 18A#2F00
(1682489980.754466) can0 70D#05
(1682489980.754522) can0 18D#2A00
(1682489980.756095) can0 18E#2F00
(1682489980.758114) can0 199#4F00
(1682489980.768585) can0 192#3300
(1682489980.770048) can0 197#3200
(1682489980.773215) can0 190#3900
(1682489980.773946) can0 196#2A00
(1682489980.775816) can0 18C#3800
(1682489980.779840) can0 195#2400
(1682489980.779857) can0 198#2600
(1682489980.780451) can0 194#2300
(1682489980.780647) can0 18F#2200
(1682489980.786120) can0 193#1A00
(1682489980.786369) can0 19A#2600
(1682489980.788201) can0 191#4800
(1682489980.794831) can0 18B#4F00
(1682489980.803987) can0 18D#2A00
(1682489980.804275) can0 18A#3600
(1682489980.806119) can0 18E#3000
(1682489980.808225) can0 199#5000
(1682489980.818831) can0 192#3F00
(1682489980.820514) can0 197#3600
(1682489980.823213) can0 190#3B00
(1682489980.824115) can0 196#2B00
(1682489980.825710) can0 18C#4300
(1682489980.829471) can0 198#2400
(1682489980.829488) can0 195#2200
(1682489980.830667) can0 194#2300
(1682489980.830685) can0 18F#2300
(1682489980.836331) can0 193#1A00
(1682489980.836598) can0 19A#3100
(1682489980.838781) can0 191#4900
(1682489980.844892) can0 18B#4E00
(1682489980.854219) can0 18D#2700
(1682489980.854407) can0 18A#3900
(1682489980.856111) can0 18E#2200
(1682489980.858121) can0 199#5000
(1682489980.869099) can0 192#3100
(1682489980.869944) can0 197#3500
(1682489980.873219) can0 190#3D00
(1682489980.874295) can0 196#2C00
(1682489980.875852) can0 18C#3A00
(1682489980.879824) can0 198#2500
(1682489980.879841) can0 195#2200
(1682489980.880701) can0 194#2200
(1682489980.880735) can0 18F#2600
(1682489980.886445) can0 193#1C00
(1682489980.886849) can0 19A#2300
(1682489980.888820) can0 191#4900
(1682489980.895160) can0 18B#4D00
(1682489980.904222) can0 18D#3E00
(1682489980.904523) can0 18A#3600
(1682489980.906103) can0 18E#2300
(1682489980.908813) can0 199#5100
(1682489980.919627) can0 192#3700
(1682489980.919965) can0 197#3600
(1682489980.923212) can0 190#3F00
(1682489980.924858) can0 196#2C00
(1682489980.925112) can0 18C#3D00
(1682489980.929834) can0 198#2600
(1682489980.929851) can0 195#1E00
(1682489980.930877) can0 194#2300
(1682489980.930894) can0 18F#2A00
(1682489980.936831) can0 193#1D00
(1682489980.937064) can0 19A#2500
(1682489980.938727) can0 191#4700
(1682489980.945223) can0 18B#4D00
(1682489980.954142) can0 18D#3E00
(1682489980.954964) can0 18A#2B00
(1682489980.956470) can0 18E#2200
(1682489980.958837) can0 199#5200
(1682489980.969820) can0 192#3E00
(1682489980.970048) can0 197#3600
(1682489980.973343) can0 190#4200
(1682489980.974571) can0 196#2C00
(1682489980.975305) can0 18C#4900
(1682489980.979838) can0 198#2600
(1682489980.979879) can0 195#1F00
(1682489980.981364) can0 194#2300
(1682489980.981382) can0 70F#05
(1682489980.981387) can0 18F#2A00
(1682489980.986832) can0 193#2200
(1682489980.987430) can0 19A#1D00
(1682489980.988553) can0 191#4900
(1682489980.995218) can0 18B#4C00
(1682489981.004841) can0 18D#2300
(1682489981.004858) can0 18A#3600
(1682489981.005850) can0 18E#2400
(1682489981.008439) can0 199#5300
(1682489981.019836) can0 192#3000
(1682489981.020133) can0 197#3000
(1682489981.023666) can0 190#4400
(1682489981.024565) can0 196#2E00
(1682489981.025225) can0 18C#3F00
(1682489981.029495) can0 198#2800
(1682489981.029997) can0 18F#2A00
(1682489981.030067) can0 195#1C00
(1682489981.031066) can0 194#2300
(1682489981.036506) can0 193#2100
(1682489981.037582) can0 19A#5500
(1682489981.038744) can0 191#4600
(1682489981.045396) can0 18B#3C00
(1682489981.054842) can0 18D#3C00
(1682489981.054858) can0 18A#2F00
(1682489981.056529) can0 18E#2400
(1682489981.058547) can0 199#5200
(1682489981.069570) can0 192#3A00
(1682489981.070576) can0 197#2F00
(1682489981.073825) can0 190#4600
(1682489981.074784) can0 196#2D00
(1682489981.075088) can0 70C#05
(1682489981.075104) can0 18C#4200
(1682489981.079467) can0 198#2800
(1682489981.080381) can0 18F#2D00
(1682489981.080398) can0 195#1C00
(1682489981.080918) can0 194#2500
(1682489981.086839) can0 193#2200
(1682489981.088509) can0 19A#5000
(1682489981.088592) can0 191#4300
(1682489981.095452) can0 18B#4B00
(1682489981.104884) can0 18D#3A00
(1682489981.104916) can0 18A#3600
(1682489981.105973) can0 18E#2600
(1682489981.108840) can0 199#5300
(1682489981.119705) can0 192#3A00
(1682489981.120424) can0 197#3600
(1682489981.123419) can0 190#4800
(1682489981.124407) can0 18C#5400
(1682489981.124741) can0 196#2D00
(1682489981.129507) can0 198#2900
(1682489981.130221) can0 18F#2D00
(1682489981.130450) can0 195#2F00
(1682489981.131001) can0 194#2500
(1682489981.136838) can0 193#2500
(1682489981.138743) can0 19A#4C00
(1682489981.138760) can0 191#4E00
(1682489981.145844) can0 18B#4B00
(1682489981.155022) can0 18D#3900
(1682489981.155039) can0 18A#2F00
(1682489981.155987) can0 18E#2600
(1682489981.158909) can0 199#5400
(1682489981.170494) can0 192#3900
(1682489981.170510) can0 197#3600
(1682489981.173883) can0 190#4A00
(1682489981.174113) can0 18C#4300
(1682489981.175582) can0 196#2E00
(1682489981.179894) can0 198#2900
(1682489981.180172) can0 18F#2F00
(1682489981.180864) can0 195#2F00
(1682489981.180948) can0 194#2800
(1682489981.186849) can0 713#05
(1682489981.186867) can0 193#2600
(1682489981.188472) can0 19A#4900
(1682489981.188881) can0 191#4000
(1682489981.195844) can0 18B#4A00
(1682489981.205238) can0 18D#3900
(1682489981.205255) can0 18A#3900
(1682489981.206708) can0 18E#2800
(1682489981.209009) can0 199#5500
(1682489981.219933) can0 192#3700
(1682489981.220588) can0 197#3600
(1682489981.223775) can0 190#4C00
(1682489981.224129) can0 18C#4600
(1682489981.225103) can0 196#2E00
(1682489981.229843) can0 718#05
(1682489981.229860) can0 198#2900
(1682489981.230274) can0 18F#2E00
(1682489981.231009) can0 195#2D00
(1682489981.231026) can0 194#2800
(1682489981.235901) can0 193#2400
(1682489981.238741) can0 19A#4500
(1682489981.238976) can0 191#4A00
(1682489981.245836) can0 18B#4A00
(1682489981.255237) can0 18D#3800
(1682489981.255276) can0 18A#3900
(1682489981.256733) can0 18E#2900
(1682489981.259240) can0 199#5500
(1682489981.270814) can0 192#3700
(1682489981.270830) can0 197#3600
(1682489981.273848) can0 190#4E00
(1682489981.274106) can0 18C#4700
(1682489981.275432) can0 196#2F00
(1682489981.278675) can0 198#2A00
(1682489981.280839) can0 18F#2F00
(1682489981.280856) can0 715#05
(1682489981.281001) can0 195#2D00
(1682489981.281067) can0 714#05
(1682489981.281183) can0 194#2900
(1682489981.286049) can0 193#2700
(1682489981.289002) can0 19A#4100
(1682489981.289042) can0 191#3B00
(1682489981.295842) can0 70B#05
(1682489981.295858) can0 18B#4A00
(1682489981.305438) can0 18D#3800
(1682489981.305455) can0 18A#3000
(1682489981.305984) can0 18E#2A00
(1682489981.309674) can0 199#5600
(1682489981.320850) can0 192#3700
(1682489981.320867) can0 717#05
(1682489981.320872) can0 197#3900
(1682489981.323848) can0 190#5000
(1682489981.324108) can0 18C#4600
(1682489981.325432) can0 196#2F00
(1682489981.328748) can0 198#2B00
(1682489981.330837) can0 195#2B00
(1682489981.330855) can0 194#2900
(1682489981.330860) can0 18F#3000
(1682489981.336487) can0 193#2900
(1682489981.339242) can0 19A#3F00
(1682489981.339259) can0 191#3800
(1682489981.345004) can0 18B#4800
(1682489981.355886) can0 18D#3700
(1682489981.355893) can0 18A#3100
(1682489981.356009) can0 18E#2D00
(1682489981.359786) can0 199#5600
(1682489981.369927) can0 197#3600
(1682489981.370483) can0 712#05
(1682489981.370500) can0 192#3700
(1682489981.373518) can0 190#5200
(1682489981.374440) can0 18C#4900
(1682489981.375830) can0 196#2F00
(1682489981.378851) can0 198#2B00
(1682489981.380850) can0 195#2C00
(1682489981.380868) can0 194#2900
(1682489981.380873) can0 18F#3000
(1682489981.385893) can0 193#2B00
(1682489981.389451) can0 19A#3C00
(1682489981.389468) can0 191#3900
(1682489981.394894) can0 18B#4800
(1682489981.405655) can0 18D#3600
(1682489981.405672) can0 70A#05
(1682489981.405675) can0 18A#3800
(1682489981.406123) can0 18E#2F00
(1682489981.409460) can0 199#5700
(1682489981.419860) can0 192#3500
(1682489981.419877) can0 197#3600
(1682489981.423618) can0 190#5400
(1682489981.424382) can0 18C#4900
(1682489981.425701) can0 196#3000
(1682489981.428586) can0 198#2C00
(1682489981.430755) can0 194#2D00
(1682489981.430771) can0 195#2B00
(1682489981.430777) can0 18F#3000
(1682489981.436285) can0 193#2C00
(1682489981.439843) can0 19A#3900
(1682489981.439860) can0 191#3600
(1682489981.445243) can0 18B#4700
(1682489981.455176) can0 18A#3700
(1682489981.455625) can0 18D#3600
(1682489981.456371) can0 18E#2F00
(1682489981.459520) can0 199#5800
(1682489981.469893) can0 192#3400
(1682489981.469899) can0 197#3600
(1682489981.473848) can0 710#05
(1682489981.473865) can0 190#5600
(1682489981.474138) can0 18C#4D00
(1682489981.476066) can0 196#2F00
(1682489981.478662) can0 198#2D00
(1682489981.480629) can0 194#2D00
(1682489981.480647) can0 18F#3400
(1682489981.480652) can0 195#2B00
(1682489981.486133) can0 193#2D00
(1682489981.489857) can0 191#4100
(1682489981.489877) can0 19A#4300
(1682489981.495720) can0 18B#4800
(1682489981.505246) can0 18A#3600
(1682489981.505950) can0 18D#3600
(1682489981.506139) can0 18E#2F00
(1682489981.509855) can0 719#05
(1682489981.509871) can0 199#5A00
(1682489981.519919) can0 192#3300
(1682489981.519934) can0 197#2300
(1682489981.522580) can0 190#5900
(1682489981.524443) can0 18C#4F00
(1682489981.526107) can0 196#2F00
(1682489981.528850) can0 198#2D00
(1682489981.530857) can0 194#2E00
(1682489981.530873) can0 18F#3500
(1682489981.530879) can0 195#2B00
(1682489981.536106) can0 193#2C00
(1682489981.539915) can0 191#3900
(1682489981.539932) can0 71A#05
(1682489981.539935) can0 19A#3C00
(1682489981.545449) can0 18B#4600
(1682489981.554978) can0 18A#3600
(1682489981.556602) can0 18D#3400
(1682489981.556619) can0 18E#3000
(1682489981.558858) can0 199#5900
(1682489981.570243) can0 197#3600
(1682489981.570260) can0 192#3300
(1682489981.572851) can0 190#5B00
(1682489981.574155) can0 18C#4D00
(1682489981.576143) can0 196#2F00
(1682489981.578801) can0 198#2D00
(1682489981.580808) can0 194#2F00
(1682489981.580825) can0 18F#3300
(1682489981.580970) can0 195#2A00
(1682489981.586857) can0 193#2D00
(1682489981.589859) can0 19A#3700
(1682489981.589876) can0 191#3D00
(1682489981.595852) can0 18B#4600
(1682489981.605840) can0 18A#3700
(1682489981.606045) can0 18D#3600
(1682489981.606070) can0 70E#05
(1682489981.606202) can0 18E#3200
(1682489981.608850) can0 199#5900
(1682489981.620372) can0 197#3600
(1682489981.620388) can0 192#3100
(1682489981.622847) can0 190#5D00
(1682489981.624841) can0 18C#4E00
(1682489981.626846) can0 196#2D00
(1682489981.628748) can0 198#2E00
(1682489981.630917) can0 194#3000
(1682489981.630934) can0 18F#3700
(1682489981.631133) can0 195#2900
(1682489981.636899) can0 193#2D00
(1682489981.639623) can0 19A#3700
(1682489981.639864) can0 711#05
(1682489981.639880) can0 191#3C00
(1682489981.645854) can0 18B#4600
(1682489981.655864) can0 18E#3300
(1682489981.655880) can0 18A#3600
(1682489981.656177) can0 18D#3400
(1682489981.658799) can0 199#5900
(1682489981.670865) can0 197#3600
(1682489981.670881) can0 192#3000
(1682489981.672680) can0 190#5E00
(1682489981.674290) can0 18C#5100
(1682489981.676451) can0 716#05
(1682489981.676467) can0 196#2D00
(1682489981.678661) can0 198#2E00
(1682489981.681145) can0 194#3000
(1682489981.681162) can0 18F#3500
(1682489981.681315) can0 195#2900
(1682489981.686860) can0 193#2B00
(1682489981.689256) can0 191#3A00
(1682489981.689648) can0 19A#3200
(1682489981.695562) can0 18B#4500
(1682489981.705451) can0 18E#3500
(1682489981.705468) can0 18A#3600
(1682489981.706838) can0 18D#3600
(1682489981.709183) can0 199#5800
(1682489981.720429) can0 197#3600
(1682489981.720582) can0 192#3000
(1682489981.722927) can0 190#6000
(1682489981.724335) can0 18C#5100
(1682489981.725838) can0 196#2B00
(1682489981.728630) can0 198#2F00
(1682489981.731616) can0 18F#3400
(1682489981.731623) can0 194#3000
(1682489981.731628) can0 195#2A00
(1682489981.736862) can0 193#2F00
(1682489981.739865) can0 191#3700
(1682489981.739882) can0 19A#3100
(1682489981.745861) can0 18B#4400
(1682489981.755865) can0 18E#3600
(1682489981.755882) can0 18A#3700
(1682489981.756649) can0 70D#05
(1682489981.756666) can0 18D#3300
(1682489981.758902) can0 199#5700
(1682489981.770869) can0 197#3B00
(1682489981.770887) can0 192#2F00
(1682489981.772914) can0 190#6100
(1682489981.774854) can0 18C#5500
(1682489981.775778) can0 196#2A00
(1682489981.778673) can0 198#3000
(1682489981.780946) can0 18F#3800
(1682489981.780967) can0 194#3200
(1682489981.781900) can0 195#2800
(1682489981.786659) can0 193#2A00
(1682489981.789851) can0 191#3700
(1682489981.790123) can0 19A#3700
(1682489981.795863) can0 18B#4400
(1682489981.805874) can0 18E#3700
(1682489981.805891) can0 18A#3600
(1682489981.805896) can0 18D#3200
(1682489981.809270) can0 199#5500
(1682489981.820869) can0 197#3600
(1682489981.820887) can0 192#2F00
(1682489981.822835) can0 190#6200
(1682489981.824757) can0 18C#5500
(1682489981.826321) can0 196#2900
(1682489981.828639) can0 198#3000
(1682489981.831028) can0 18F#3600
(1682489981.831046) can0 194#3000
(1682489981.832163) can0 195#2900
(1682489981.836906) can0 193#2900
(1682489981.839855) can0 191#3600
(1682489981.840611) can0 19A#4700
(1682489981.846012) can0 18B#4300
(1682489981.855476) can0 18E#3800
(1682489981.855695) can0 18A#3700
(1682489981.855720) can0 18D#3200
(1682489981.859727) can0 199#5400
(1682489981.870515) can0 197#3600
(1682489981.871273) can0 192#3000
(1682489981.873077) can0 190#6200
(1682489981.874527) can0 18C#5500
(1682489981.875887) can0 196#2800
(1682489981.878865) can0 198#3100
(1682489981.881366) can0 18F#3900
(1682489981.881383) can0 194#3300
(1682489981.882004) can0 195#2700
(1682489981.886825) can0 193#2D00
(1682489981.889609) can0 191#3300
(1682489981.890811) can0 19A#3F00
(1682489981.896152) can0 18B#4300
(1682489981.905858) can0 18E#3900
(1682489981.905875) can0 18A#3600
(1682489981.905880) can0 18D#3000
(1682489981.909454) can0 199#5300
(1682489981.920868) can0 197#3600
(1682489981.921288) can0 192#7D00
(1682489981.923179) can0 190#6200
(1682489981.924848) can0 18C#5700
(1682489981.926120) can0 196#2900
(1682489981.928863) can0 198#1400
(1682489981.931801) can0 18F#3600
(1682489981.931809) can0 194#3500
(1682489981.932168) can0 195#2600
(1682489981.936853) can0 193#2C00
(1682489981.939871) can0 191#3200
(1682489981.941175) can0 19A#3B00
(1682489981.946254) can0 18B#4300
(1682489981.955870) can0 18E#3B00
(1682489981.955887) can0 18A#3600
(1682489981.956055) can0 18D#2F00
(1682489981.959860) can0 199#5200
(1682489981.970814) can0 197#3600
(1682489981.971502) can0 192#2D00
(1682489981.973240) can0 190#6300
(1682489981.974853) can0 18C#5800
(1682489981.976450) can0 196#2700
(1682489981.978600) can0 198#1E00
(1682489981.981762) can0 70F#05
(1682489981.981779) can0 18F#3100
(1682489981.981784) can0 194#3000
(1682489981.982563) can0 195#2600
(1682489981.987195) can0 193#2900
(1682489981.990032) can0 191#2F00
(1682489981.991798) can0 19A#3F00
(1682489981.996364) can0 18B#4300
(1682489982.005871) can0 18E#3D00
(1682489982.006022) can0 18A#3600
(1682489982.006228) can0 18D#3000
(1682489982.009871) can0 199#5100
(1682489982.021035) can0 197#3600
(1682489982.021789) can0 192#2B00
(1682489982.023626) can0 190#6400
(1682489982.024437) can0 18C#5900
(1682489982.026305) can0 196#2600
(1682489982.028862) can0 198#3200
(1682489982.030341) can0 18F#3800
(1682489982.031762) can0 194#3800
(1682489982.032719) can0 195#2600
(1682489982.037257) can0 193#2F00
(1682489982.040259) can0 191#3000
(1682489982.041857) can0 19A#3C00
(1682489982.046874) can0 18B#4200
(1682489982.055877) can0 18E#3D00
(1682489982.056135) can0 18A#3600
(1682489982.056346) can0 18D#3000
(1682489982.059630) can0 199#5000
(1682489982.071506) can0 197#2700
(1682489982.071769) can0 192#2900
(1682489982.072919) can0 190#6500
(1682489982.074131) can0 70C#05
(1682489982.074166) can0 18C#5B00
(1682489982.076867) can0 196#2400
(1682489982.078912) can0 198#1C00
(1682489982.080457) can0 18F#3700
(1682489982.081548) can0 194#3000
(1682489982.082798) can0 195#2500
(1682489982.086859) can0 193#2900
(1682489982.090679) can0 191#2D00
(1682489982.091782) can0 19A#3700
(1682489982.096865) can0 18B#4100
(1682489982.105873) can0 18E#3F00
(1682489982.106267) can0 18A#3600
(1682489982.106505) can0 18D#3000
(1682489982.109744) can0 199#4E00
(1682489982.121255) can0 197#3600
(1682489982.121967) can0 192#2900
(1682489982.123290) can0 190#6500
(1682489982.123307) can0 18C#5B00
(1682489982.126679) can0 196#2600
(1682489982.128644) can0 198#1E00
(1682489982.130498) can0 18F#3A00
(1682489982.131629) can0 194#3600
(1682489982.133157) can0 195#2500
(1682489982.137332) can0 193#2D00
(1682489982.140366) can0 191#2D00
(1682489982.142119) can0 19A#3600
(1682489982.146875) can0 18B#4100
(1682489982.155864) can0 18E#4000
(1682489982.156629) can0 18A#3600
(1682489982.156646) can0 18D#2D00
(1682489982.159935) can0 199#4C00
(1682489982.171266) can0 197#3600
(1682489982.172822) can0 192#7600
(1682489982.172995) can0 190#6600
(1682489982.173211) can0 18C#5E00
(1682489982.176925) can0 196#2400
(1682489982.178866) can0 198#2300
(1682489982.180865) can0 18F#3900
(1682489982.181800) can0 194#3900
(1682489982.183719) can0 195#2500
(1682489982.187272) can0 713#05
(1682489982.187288) can0 193#2E00
(1682489982.190222) can0 191#4200
(1682489982.192380) can0 19A#3400
(1682489982.196872) can0 18B#4000
(1682489982.205691) can0 18E#3600
(1682489982.206763) can0 18A#3600
(1682489982.206780) can0 18D#2F00
(1682489982.210206) can0 199#4C00
(1682489982.221371) can0 197#3600
(1682489982.222758) can0 192#7500
(1682489982.223034) can0 190#6700
(1682489982.223200) can0 18C#5F00
(1682489982.227563) can0 196#2200
(1682489982.228861) can0 718#05
(1682489982.228878) can0 198#2200
(1682489982.230875) can0 18F#3900
(1682489982.232375) can0 194#2400
(1682489982.233850) can0 195#2400
(1682489982.236838) can0 193#2D00
(1682489982.240875) can0 191#2A00
(1682489982.242915) can0 19A#3100
(1682489982.246742) can0 18B#4000
(1682489982.255920) can0 18E#3600
(1682489982.256705) can0 18A#3400
(1682489982.256944) can0 18D#3600
(1682489982.259909) can0 199#4900
(1682489982.271876) can0 197#3600
(1682489982.272621) can0 192#7400
(1682489982.273341) can0 190#6700
(1682489982.273358) can0 18C#5F00
(1682489982.277271) can0 196#2200
(1682489982.277576) can0 198#2400
(1682489982.280878) can0 18F#3900
(1682489982.282308) can0 714#05
(1682489982.282326) can0 194#2200
(1682489982.283462) can0 715#05
(1682489982.283479) can0 195#2400
(1682489982.286196) can0 193#2D00
(1682489982.290886) can0 191#2900
(1682489982.292868) can0 19A#2E00
(1682489982.296890) can0 70B#05
(1682489982.296906) can0 18B#3F00
(1682489982.305924) can0 18E#3600
(1682489982.307388) can0 18A#3600
(1682489982.307406) can0 18D#2B00
(1682489982.310133) can0 199#4800
(1682489982.321884) can0 717#05
(1682489982.321901) can0 197#3800
(1682489982.322780) can0 192#7200
(1682489982.323144) can0 190#6800
(1682489982.323160) can0 18C#6400
(1682489982.327870) can0 196#2200
(1682489982.327887) can0 198#2600
(1682489982.330939) can0 18F#3B00
(1682489982.330956) can0 194#3600
(1682489982.332872) can0 195#2300
(1682489982.336777) can0 193#2F00
(1682489982.340782) can0 191#3F00
(1682489982.342949) can0 19A#2E00
(1682489982.346036) can0 18B#3E00
(1682489982.355921) can0 18E#3D00
(1682489982.357504) can0 18A#3600
(1682489982.357521) can0 18D#2D00
(1682489982.360843) can0 199#4800
(1682489982.370878) can0 197#2900
(1682489982.372955) can0 712#05
(1682489982.372972) can0 192#2400
(1682489982.373156) can0 190#6900
(1682489982.373172) can0 18C#6300
(1682489982.377920) can0 196#2300
(1682489982.377926) can0 198#2900
(1682489982.380931) can0 18F#4A00
(1682489982.380948) can0 194#2900
(1682489982.382936) can0 195#2300
(1682489982.386780) can0 193#2A00
(1682489982.390916) can0 191#3E00
(1682489982.393272) can0 19A#2B00
(1682489982.396270) can0 18B#3900
(1682489982.405886) can0 18E#3F00
(1682489982.407604) can0 70A#05
(1682489982.407621) can0 18A#3500
(1682489982.407627) can0 18D#2B00
(1682489982.410879) can0 199#4600
(1682489982.420645) can0 197#2900
(1682489982.422160) can0 192#6F00
(1682489982.423907) can0 190#6A00
(1682489982.423914) can0 18C#6200
(1682489982.427879) can0 196#2200
(1682489982.427897) can0 198#2200
(1682489982.430932) can0 18F#3B00
(1682489982.430938) can0 194#2900
(1682489982.433271) can0 195#2200
(1682489982.436560) can0 193#2900
(1682489982.440942) can0 191#3600
(1682489982.443778) can0 19A#2900
(1682489982.445894) can0 18B#3E00
(1682489982.455889) can0 18E#4100
(1682489982.456041) can0 18A#3500
(1682489982.457879) can0 18D#2B00
(1682489982.460884) can0 199#4400
(1682489982.470886) can0 197#2900
(1682489982.472823) can0 192#6E00
(1682489982.473219) can0 710#05
(1682489982.473237) can0 18C#6800
(1682489982.473296) can0 190#6A00
(1682489982.477785) can0 196#2400
(1682489982.477803) can0 198#1400
(1682489982.481118) can0 18F#3E00
(1682489982.481136) can0 194#2900
(1682489982.483742) can0 195#2200
(1682489982.486689) can0 193#2900
(1682489982.491507) can0 191#3700
(1682489982.493614) can0 19A#2700
(1682489982.496286) can0 18B#3F00
(1682489982.505879) can0 18E#4600
(1682489982.506131) can0 18A#3400
(1682489982.507831) can0 18D#3A00
(1682489982.510537) can0 719#05
(1682489982.510554) can0 199#4300
(1682489982.520722) can0 197#2A00
(1682489982.522297) can0 192#6C00
(1682489982.522313) can0 190#6B00
(1682489982.523460) can0 18C#6700
(1682489982.527836) can0 198#2300
(1682489982.527852) can0 196#2400
(1682489982.531285) can0 18F#3D00
(1682489982.531303) can0 194#2900
(1682489982.533929) can0 195#2200
(1682489982.536727) can0 193#2F00
(1682489982.541280) can0 191#3C00
(1682489982.543957) can0 71A#05
(1682489982.543974) can0 19A#3E00
(1682489982.546890) can0 18B#3A00
(1682489982.555942) can0 18E#3D00
(1682489982.556258) can0 18A#3500
(1682489982.558109) can0 18D#2900
(1682489982.559822) can0 199#4200
(1682489982.570947) can0 197#3600
(1682489982.572890) can0 190#6C00
(1682489982.572907) can0 192#6B00
(1682489982.573283) can0 18C#6800
(1682489982.577775) can0 198#1700
(1682489982.577810) can0 196#2200
(1682489982.581188) can0 18F#3600
(1682489982.581205) can0 194#2B00
(1682489982.583790) can0 195#2200
(1682489982.586890) can0 193#2C00
(1682489982.591145) can0 191#3B00
(1682489982.593293) can0 19A#3C00
(1682489982.596884) can0 18B#3D00
(1682489982.605941) can0 70E#05
(1682489982.605947) can0 18E#4B00
(1682489982.606383) can0 18A#3400
(1682489982.608263) can0 18D#3700
(1682489982.609764) can0 199#3800
(1682489982.620935) can0 197#3C00
(1682489982.622939) can0 190#6D00
(1682489982.622948) can0 192#6A00
(1682489982.623265) can0 18C#6900
(1682489982.627892) can0 198#2800
(1682489982.627932) can0 196#2300
(1682489982.631289) can0 18F#3600
(1682489982.631306) can0 194#2E00
(1682489982.633672) can0 195#2200
(1682489982.636853) can0 193#2B00
(1682489982.641802) can0 711#05
(1682489982.641819) can0 191#3900
(1682489982.643779) can0 19A#3C00
(1682489982.646888) can0 18B#3800
(1682489982.654954) can0 18E#3100
(1682489982.656884) can0 18A#3400
(1682489982.658864) can0 18D#3700
(1682489982.660070) can0 199#3700
(1682489982.671536) can0 197#3000
(1682489982.672871) can0 190#6E00
(1682489982.672888) can0 192#6900
(1682489982.673282) can0 18C#6900
(1682489982.677793) can0 198#1C00
(1682489982.678084) can0 716#05
(1682489982.678100) can0 196#2200
(1682489982.681074) can0 18F#3600
(1682489982.681375) can0 194#3100
(1682489982.683944) can0 195#2100
(1682489982.686939) can0 193#2F00
(1682489982.690896) can0 191#3900
(1682489982.693888) can0 19A#3B00
(1682489982.696795) can0 18B#3700
(1682489982.704865) can0 18E#4600
(1682489982.706786) can0 18A#3400
(1682489982.708783) can0 18D#3600
(1682489982.710106) can0 199#3800
(1682489982.721286) can0 197#2900
(1682489982.722882) can0 190#6F00
(1682489982.722898) can0 192#6700
(1682489982.723335) can0 18C#6C00
(1682489982.727895) can0 196#2400
(1682489982.727912) can0 198#1C00
(1682489982.731838) can0 18F#3800
(1682489982.731855) can0 194#2F00
(1682489982.734277) can0 195#2100
(1682489982.737064) can0 193#2F00
(1682489982.740800) can0 191#3A00
(1682489982.743797) can0 19A#3F00
(1682489982.746797) can0 18B#3B00
(1682489982.754964) can0 18E#3600
(1682489982.756954) can0 18A#3400
(1682489982.758898) can0 70D#05
(1682489982.758915) can0 18D#3600
(1682489982.760660) can0 199#3900
(1682489982.771289) can0 197#2B00
(1682489982.772879) can0 190#6F00
(1682489982.773107) can0 192#6500
(1682489982.773293) can0 18C#6D00
(1682489982.777895) can0 196#2200
(1682489982.777912) can0 198#1C00
(1682489982.781891) can0 18F#3600
(1682489982.781908) can0 194#3300
(1682489982.784276) can0 195#2300
(1682489982.787582) can0 193#2900
(1682489982.790901) can0 191#1600
(1682489982.794192) can0 19A#3900
(1682489982.796837) can0 18B#3A00
(1682489982.805048) can0 18E#3800
(1682489982.807223) can0 18A#3400
(1682489982.807541) can0 18D#3600
(1682489982.810131) can0 199#3B00
(1682489982.821197) can0 197#3A00
(1682489982.822881) can0 190#6F00
(1682489982.823295) can0 192#6400
(1682489982.823311) can0 18C#6F00
(1682489982.827900) can0 196#2200
(1682489982.827917) can0 198#1C00
(1682489982.831904) can0 18F#3D00
(1682489982.831921) can0 194#3100
(1682489982.834898) can0 195#1C00
(1682489982.837280) can0 193#2900
(1682489982.840967) can0 191#3600
(1682489982.844403) can0 19A#3700
(1682489982.847223) can0 18B#3700
(1682489982.855058) can0 18E#3600
(1682489982.857278) can0 18A#3200
(1682489982.858006) can0 18D#3600
(1682489982.860886) can0 199#3900
(1682489982.871849) can0 197#3000
(1682489982.872764) can0 190#7000
(1682489982.873471) can0 18C#6E00
(1682489982.873489) can0 192#6300
(1682489982.877902) can0 198#1E00
(1682489982.877919) can0 196#3300
(1682489982.881796) can0 18F#4100
(1682489982.881814) can0 194#3000
(1682489982.884800) can0 195#1C00
(1682489982.887293) can0 193#2900
(1682489982.891505) can0 191#1900
(1682489982.894487) can0 19A#3700
(1682489982.897225) can0 18B#3700
(1682489982.905117) can0 18E#3600
(1682489982.907782) can0 18A#3400
(1682489982.907799) can0 18D#3600
(1682489982.910292) can0 199#3900
(1682489982.921484) can0 197#3700
(1682489982.922688) can0 190#7100
(1682489982.923472) can0 18C#3600
(1682489982.923622) can0 192#6100
(1682489982.927786) can0 198#1F00
(1682489982.927803) can0 196#3100
(1682489982.931897) can0 18F#3700
(1682489982.931914) can0 194#3000
(1682489982.934905) can0 195#1E00
(1682489982.937407) can0 193#3000
(1682489982.941296) can0 191#3500
(1682489982.944909) can0 19A#3700
(1682489982.947703) can0 18B#3800
(1682489982.955504) can0 18E#3600
(1682489982.957954) can0 18A#3200
(1682489982.957969) can0 18D#3200
(1682489982.960904) can0 199#3700
(1682489982.971490) can0 197#3600
(1682489982.972788) can0 190#7200
(1682489982.973412) can0 18C#3300
(1682489982.973803) can0 192#5F00
(1682489982.977762) can0 198#2100
(1682489982.978004) can0 196#2F00
(1682489982.981544) can0 70F#05
(1682489982.981561) can0 18F#4000
(1682489982.981833) can0 194#3600
(1682489982.985073) can0 195#2200
(1682489982.987482) can0 193#2900
(1682489982.991370) can0 191#1C00
(1682489982.995180) can0 19A#3700
(1682489982.997432) can0 18B#3800
(1682489983.005179) can0 18E#3900
(1682489983.007798) can0 18A#3300
(1682489983.008119) can0 18D#3600
(1682489983.010901) can0 199#3600
(1682489983.021906) can0 197#3600
(1682489983.022756) can0 190#7200
(1682489983.023475) can0 18C#7300
(1682489983.024101) can0 192#5E00
(1682489983.027870) can0 198#2000
(1682489983.028140) can0 196#2E00
(1682489983.030711) can0 18F#3700
(1682489983.031904) can0 194#3200
(1682489983.035588) can0 195#1C00
(1682489983.037497) can0 193#3000
(1682489983.041499) can0 191#1D00
(1682489983.045416) can0 19A#3A00
(1682489983.047485) can0 18B#3600
(1682489983.055528) can0 18E#3C00
(1682489983.057907) can0 18A#3200
(1682489983.058302) can0 18D#3100
(1682489983.060901) can0 199#3600
(1682489983.071906) can0 197#2C00
(1682489983.073397) can0 190#7300
(1682489983.073414) can0 70C#05
(1682489983.073419) can0 18C#3600
(1682489983.074443) can0 192#5D00
(1682489983.077976) can0 198#2200
(1682489983.078298) can0 196#2C00
(1682489983.080782) can0 18F#3A00
(1682489983.082113) can0 194#3100
(1682489983.085283) can0 195#1D00
(1682489983.087944) can0 193#3000
(1682489983.091896) can0 191#1C00
(1682489983.095481) can0 19A#3E00
(1682489983.097494) can0 18B#3700
(1682489983.105203) can0 18E#4000
(1682489983.107700) can0 18A#3200
(1682489983.108544) can0 18D#4F00
(1682489983.110840) can0 199#3300
(1682489983.121909) can0 197#3600
(1682489983.122639) can0 18C#3600
(1682489983.122679) can0 190#7400
(1682489983.124892) can0 192#5B00
(1682489983.127973) can0 198#2200
(1682489983.128722) can0 196#2A00
(1682489983.130907) can0 18F#3D00
(1682489983.132804) can0 194#3100
(1682489983.135902) can0 195#1C00
(1682489983.137904) can0 193#2900
(1682489983.141407) can0 191#1E00
(1682489983.145586) can0 19A#3E00
(1682489983.147440) can0 18B#3600
(1682489983.154913) can0 18E#4300
(1682489983.157557) can0 18A#3200
(1682489983.158526) can0 18D#3700
(1682489983.160712) can0 199#3200
(1682489983.171618) can0 197#3700
(1682489983.172392) can0 18C#3700
(1682489983.172825) can0 190#7500
(1682489983.174473) can0 192#5900
(1682489983.177636) can0 198#2200
(1682489983.178526) can0 196#2900
(1682489983.180635) can0 18F#3B00
(1682489983.182151) can0 194#3000
(1682489983.185364) can0 195#1B00
(1682489983.187905) can0 713#05
(1682489983.187911) can0 193#3000
(1682489983.191909) can0 191#1D00
(1682489983.196070) can0 19A#3D00
(1682489983.197890) can0 18B#3700
(1682489983.205300) can0 18E#4700
(1682489983.208075) can0 18A#3200
(1682489983.208971) can0 18D#4A00
(1682489983.211294) can0 199#3100
(1682489983.221970) can0 197#3000
(1682489983.222600) can0 18C#3000
(1682489983.222814) can0 190#7500
(1682489983.224898) can0 192#5800
(1682489983.227881) can0 718#05
(1682489983.227890) can0 198#2400
(1682489983.229430) can0 196#2700
(1682489983.231045) can0 18F#3F00
(1682489983.232892) can0 194#3600
(1682489983.235909) can0 195#1F00
(1682489983.236721) can0 193#3000
(1682489983.241895) can0 191#1E00
(1682489983.246228) can0 19A#3D00
(1682489983.247902) can0 18B#3600
(1682489983.255283) can0 18E#4B00
(1682489983.258296) can0 18A#3100
(1682489983.259121) can0 18D#4800
(1682489983.261271) can0 199#3100
(1682489983.272126) can0 197#3600
(1682489983.272373) can0 18C#3C00
(1682489983.273182) can0 190#7600
(1682489983.274886) can0 192#5600
(1682489983.276967) can0 198#2400
(1682489983.279303) can0 196#2600
(1682489983.281092) can0 18F#4100
(1682489983.282901) can0 714#05
(1682489983.282918) can0 194#3000
(1682489983.285857) can0 715#05
(1682489983.285891) can0 195#1D00
(1682489983.286797) can0 193#3000
(1682489983.291714) can0 191#1F00
(1682489983.296507) can0 19A#4300
(1682489983.297864) can0 70B#05
(1682489983.297881) can0 18B#3500
(1682489983.305286) can0 18E#4D00
(1682489983.308309) can0 18A#3100
(1682489983.309318) can0 18D#2F00
(1682489983.311428) can0 199#3100
(1682489983.322123) can0 717#05
(1682489983.322140) can0 197#3000
(1682489983.322390) can0 18C#2300
(1682489983.323207) can0 190#7600
(1682489983.325280) can0 192#5500
(1682489983.327057) can0 198#2600
(1682489983.329326) can0 196#2500
(1682489983.331591) can0 18F#3F00
(1682489983.331607) can0 194#3600
(1682489983.334882) can0 195#1C00
(1682489983.336905) can0 193#3100
(1682489983.342227) can0 191#2000
(1682489983.346671) can0 19A#3700
(1682489983.346822) can0 18B#3300
(1682489983.355295) can0 18E#3600
(1682489983.358411) can0 18A#3100
(1682489983.359396) can0 18D#3000
(1682489983.361797) can0 199#5200
(1682489983.371201) can0 197#2F00
(1682489983.372803) can0 18C#2400
(1682489983.372952) can0 190#7700
(1682489983.375305) can0 712#05
(1682489983.375322) can0 192#5400
(1682489983.376948) can0 198#2700
(1682489983.379872) can0 196#2200
(1682489983.381654) can0 18F#3E00
(1682489983.381672) can0 194#3600
(1682489983.385406) can0 195#2200
(1682489983.387442) can0 193#3100
(1682489983.392296) can0 191#2100
(1682489983.396805) can0 19A#3800
(1682489983.396862) can0 18B#3400
(1682489983.405694) can0 18E#5600
(1682489983.408500) can0 70A#05
(1682489983.408517) can0 18A#3100
(1682489983.409481) can0 18D#3000
(1682489983.411896) can0 199#2D00
(1682489983.421304) can0 197#3000
(1682489983.422907) can0 18C#2200
(1682489983.422923) can0 190#3100
(1682489983.424491) can0 192#5200
(1682489983.427430) can0 198#2900
(1682489983.429899) can0 196#2200
(1682489983.431611) can0 18F#4000
(1682489983.431628) can0 194#3600
(1682489983.435476) can0 195#1C00
(1682489983.437120) can0 193#3000
(1682489983.442814) can0 191#2300
(1682489983.447302) can0 19A#3800
(1682489983.447319) can0 18B#3400
(1682489983.455707) can0 18E#3600
(1682489983.457903) can0 18A#2B00
(1682489983.459905) can0 18D#4000
(1682489983.461909) can0 199#3000
(1682489983.471407) can0 197#3000
(1682489983.472893) can0 18C#2200
(1682489983.472931) can0 710#05
(1682489983.472993) can0 190#7800
(1682489983.474807) can0 192#5000
(1682489983.476988) can0 198#2900
(1682489983.479906) can0 196#2300
(1682489983.481411) can0 18F#4100
(1682489983.481659) can0 194#3500
(1682489983.485611) can0 195#1B00
(1682489983.487580) can0 193#3100
(1682489983.492885) can0 191#2200
(1682489983.497377) can0 18B#3300
(1682489983.497392) can0 19A#3700
(1682489983.505304) can0 18E#5D00
(1682489983.507916) can0 18A#2B00
(1682489983.509957) can0 18D#3E00
(1682489983.511918) can0 719#05
(1682489983.511935) can0 199#5B00
(1682489983.521950) can0 197#3200
(1682489983.522011) can0 190#3200
(1682489983.522702) can0 18C#2400
(1682489983.524806) can0 192#4F00
(1682489983.526991) can0 198#2B00
(1682489983.529754) can0 196#4000
(1682489983.531473) can0 18F#3A00
(1682489983.531702) can0 194#3000
(1682489983.535738) can0 195#1B00
(1682489983.537276) can0 193#2600
(1682489983.542281) can0 191#2300
(1682489983.547919) can0 18B#3200
(1682489983.547936) can0 71A#05
(1682489983.547941) can0 19A#3700
(1682489983.555302) can0 18E#6100
(1682489983.557916) can0 18A#3100
(1682489983.559983) can0 18D#3700
(1682489983.560726) can0 199#3900
(1682489983.571913) can0 197#3000
(1682489983.572082) can0 190#3600
(1682489983.572663) can0 18C#2500
(1682489983.575071) can0 192#4D00
(1682489983.576971) can0 198#2B00
(1682489983.579880) can0 196#4000
(1682489983.581896) can0 18F#3C00
(1682489983.581913) can0 194#3300
(1682489983.586112) can0 195#1B00
(1682489983.587700) can0 193#2800
(1682489983.592919) can0 191#2400
(1682489983.596975) can0 19A#3800
(1682489983.597331) can0 18B#3200
(1682489983.605316) can0 70E#05
(1682489983.605333) can0 18E#4D00
(1682489983.607917) can0 18A#2E00
(1682489983.610312) can0 18D#3900
(1682489983.611043) can0 199#6000
(1682489983.621522) can0 197#3600
(1682489983.622125) can0 190#3600
(1682489983.622382) can0 18C#2800
(1682489983.625063) can0 192#4C00
(1682489983.626881) can0 198#2D00
(1682489983.629962) can0 196#4000
(1682489983.631363) can0 18F#4200
(1682489983.632013) can0 194#3000
(1682489983.636039) can0 195#2300
(1682489983.637178) can0 193#3200
(1682489983.642586) can0 711#05
(1682489983.642594) can0 191#2500
(1682489983.647044) can0 19A#3400
(1682489983.647532) can0 18B#3300
(1682489983.654195) can0 18E#5800
(1682489983.657880) can0 18A#2F00
(1682489983.660140) can0 18D#3600
(1682489983.660922) can0 199#6100
(1682489983.671401) can0 197#2F00
(1682489983.672179) can0 190#3500
(1682489983.672367) can0 18C#2900
(1682489983.675208) can0 192#4B00
(1682489983.676966) can0 198#2E00
(1682489983.680219) can0 716#05
(1682489983.680228) can0 196#4100
(1682489983.681514) can0 18F#4300
(1682489983.681978) can0 194#3200
(1682489983.686096) can0 195#1C00
(1682489983.687277) can0 193#3100
(1682489983.691828) can0 191#2600
(1682489983.697275) can0 19A#3700
(1682489983.697518) can0 18B#3200
(1682489983.704335) can0 18E#6B00
(1682489983.708116) can0 18A#3000
(1682489983.710193) can0 18D#3600
(1682489983.711117) can0 199#6100
(1682489983.721743) can0 197#3000
(1682489983.722444) can0 190#3600
(1682489983.722453) can0 18C#2A00
(1682489983.725478) can0 192#4A00
(1682489983.726887) can0 198#2F00
(1682489983.729296) can0 196#4100
(1682489983.731595) can0 18F#4400
(1682489983.732266) can0 194#2F00
(1682489983.736483) can0 195#2200
(1682489983.737431) can0 193#3100
(1682489983.741879) can0 191#2700
(1682489983.747602) can0 19A#3200
(1682489983.747611) can0 18B#3100
(1682489983.754375) can0 18E#3A00
(1682489983.758081) can0 18A#3000
(1682489983.760572) can0 70D#05
(1682489983.760589) can0 18D#3A00
(1682489983.761339) can0 199#3700
(1682489983.771864) can0 197#3100
(1682489983.772264) can0 190#3500
(1682489983.772334) can0 18C#2E00
(1682489983.775690) can0 192#4800
(1682489983.776928) can0 198#3000
(1682489983.779812) can0 196#4100
(1682489983.781821) can0 18F#4300
(1682489983.782158) can0 194#2E00
(1682489983.786927) can0 195#1F00
(1682489983.787321) can0 193#3200
(1682489983.792253) can0 191#2800
(1682489983.797976) can0 19A#3200
(1682489983.797985) can0 18B#3100
(1682489983.804423) can0 18E#3700
(1682489983.808836) can0 18A#3000
(1682489983.809729) can0 18D#3A00
(1682489983.811297) can0 199#6700
(1682489983.821976) can0 197#2F00
(1682489983.822281) can0 190#3700
(1682489983.822351) can0 18C#2E00
(1682489983.825867) can0 192#4600
(1682489983.827132) can0 198#3100
(1682489983.829622) can0 196#4200
(1682489983.831919) can0 18F#4300
(1682489983.832226) can0 194#1B00
(1682489983.836924) can0 195#1C00
(1682489983.837657) can0 193#2900
(1682489983.841967) can0 191#2A00
(1682489983.848248) can0 18B#3000
(1682489983.848265) can0 19A#3B00
(1682489983.854129) can0 18E#3B00
(1682489983.858924) can0 18A#3000
(1682489983.859862) can0 18D#3000
(1682489983.861506) can0 199#6C00
(1682489983.872081) can0 197#2300
(1682489983.872323) can0 190#3700
(1682489983.872346) can0 18C#2F00
(1682489983.876117) can0 192#4500
(1682489983.877526) can0 198#3200
(1682489983.879922) can0 196#4300
(1682489983.881693) can0 18F#3000
(1682489983.882445) can0 194#2200
(1682489983.887379) can0 195#2100
(1682489983.887414) can0 193#3000
(1682489983.892212) can0 191#2200
(1682489983.898223) can0 18B#3000
(1682489983.898240) can0 19A#2C00
(1682489983.904791) can0 18E#3A00
(1682489983.908835) can0 18A#3000
(1682489983.910409) can0 18D#3000
(1682489983.911949) can0 199#7100
(1682489983.921975) can0 197#3000
(1682489983.922388) can0 190#3800
(1682489983.922405) can0 18C#3000
(1682489983.926106) can0 192#4400
(1682489983.927527) can0 198#3400
(1682489983.930030) can0 196#4200
(1682489983.931924) can0 18F#3000
(1682489983.932639) can0 194#1E00
(1682489983.937307) can0 195#2000
(1682489983.937503) can0 193#3200
(1682489983.942917) can0 191#2400
(1682489983.948318) can0 18B#3000
(1682489983.948335) can0 19A#2B00
(1682489983.954206) can0 18E#7200
(1682489983.958933) can0 18A#2F00
(1682489983.960543) can0 18D#4100
(1682489983.961812) can0 199#3800
(1682489983.972318) can0 197#2200
(1682489983.972357) can0 190#3A00
(1682489983.972490) can0 18C#3100
(1682489983.976430) can0 192#4200
(1682489983.976955) can0 198#3500
(1682489983.980318) can0 196#4300
(1682489983.981925) can0 70F#05
(1682489983.981941) can0 18F#3100
(1682489983.982660) can0 194#2100
(1682489983.987424) can0 195#1F00
(1682489983.987581) can0 193#3000
(1682489983.992924) can0 191#2A00
(1682489983.998429) can0 18B#3000
(1682489983.998580) can0 19A#3700
(1682489984.004927) can0 18E#3600
(1682489984.008928) can0 18A#3000
(1682489984.010075) can0 18D#3D00
(1682489984.011923) can0 199#6C00
(1682489984.022221) can0 197#2300
(1682489984.022408) can0 18C#3100
(1682489984.022440) can0 190#3A00
(1682489984.026298) can0 192#4100
(1682489984.027061) can0 198#3600
(1682489984.030313) can0 196#4300
(1682489984.031042) can0 18F#3200
(1682489984.032925) can0 194#2100
(1682489984.037937) can0 195#1D00
(1682489984.037954) can0 193#3000
(1682489984.042934) can0 191#2600
(1682489984.048532) can0 18B#2A00
(1682489984.048820) can0 19A#2A00
(1682489984.054969) can0 18E#3600
(1682489984.058881) can0 18A#2F00
(1682489984.060970) can0 18D#7A00
(1682489984.061808) can0 199#6B00
(1682489984.072005) can0 197#2400
(1682489984.072412) can0 70C#05
(1682489984.072429) can0 18C#3400
(1682489984.072460) can0 190#3700
(1682489984.076930) can0 192#3F00
(1682489984.076947) can0 198#3600
(1682489984.080930) can0 196#4400
(1682489984.080949) can0 18F#3400
(1682489984.082752) can0 194#2200
(1682489984.087594) can0 195#1E00
(1682489984.087663) can0 193#3100
(1682489984.092693) can0 191#2500
(1682489984.098942) can0 18B#3000
(1682489984.099088) can0 19A#2800
(1682489984.104832) can0 18E#3700
(1682489984.109024) can0 18A#2F00
(1682489984.110570) can0 18D#4400
(1682489984.111888) can0 199#3800
(1682489984.121615) can0 18C#3500
(1682489984.122176) can0 197#2500
(1682489984.122581) can0 190#2900
(1682489984.126880) can0 192#3E00
(1682489984.126897) can0 198#3700
(1682489984.130948) can0 196#4400
(1682489984.130965) can0 18F#3500
(1682489984.132934) can0 194#2200
(1682489984.137946) can0 195#1F00
(1682489984.137963) can0 193#3300
(1682489984.142839) can0 191#2C00
(1682489984.148947) can0 18B#2D00
(1682489984.149338) can0 19A#2500
(1682489984.154936) can0 18E#3A00
(1682489984.158973) can0 18A#2F00
(1682489984.160935) can0 18D#2500
(1682489984.162547) can0 199#6900
(1682489984.171940) can0 18C#2200
(1682489984.172268) can0 197#2500
(1682489984.172964) can0 190#2A00
(1682489984.177013) can0 192#3D00
(1682489984.177030) can0 198#3800
(1682489984.180954) can0 196#4700
(1682489984.180971) can0 18F#3600
(1682489984.183103) can0 194#2400
(1682489984.188029) can0 195#1D00
(1682489984.188046) can0 713#05
(1682489984.188051) can0 193#3000
(1682489984.192984) can0 191#2200
(1682489984.198947) can0 18B#2C00
(1682489984.199759) can0 19A#2300
(1682489984.204948) can0 18E#3700
(1682489984.209341) can0 18A#2F00
(1682489984.210925) can0 18D#3600
(1682489984.212555) can0 199#6700
(1682489984.221846) can0 18C#2700
(1682489984.222437) can0 197#2700
(1682489984.222663) can0 190#2D00
(1682489984.227560) can0 718#05
(1682489984.227577) can0 198#3A00
(1682489984.227582) can0 192#3B00
(1682489984.230941) can0 196#4200
(1682489984.230958) can0 18F#3900
(1682489984.232984) can0 194#2400
(1682489984.237261) can0 193#3400
(1682489984.237987) can0 195#1E00
(1682489984.243579) can0 191#2E00
(1682489984.248938) can0 18B#3D00
(1682489984.250499) can0 19A#7500
(1682489984.254505) can0 18E#4100
(1682489984.259148) can0 18A#2F00
(1682489984.260998) can0 18D#3800
(1682489984.262648) can0 199#3700
(1682489984.271948) can0 18C#2800
(1682489984.272550) can0 197#2800
(1682489984.272660) can0 190#2F00
(1682489984.276616) can0 198#3B00
(1682489984.277348) can0 192#3A00
(1682489984.281018) can0 196#4000
(1682489984.281035) can0 18F#3A00
(1682489984.283244) can0 714#05
(1682489984.283261) can0 194#2500
(1682489984.287237) can0 193#3300
(1682489984.288698) can0 715#05
(1682489984.288714) can0 195#1D00
(1682489984.292987) can0 191#2600
(1682489984.299006) can0 70B#05
(1682489984.299023) can0 18B#3000
(1682489984.300740) can0 19A#7200
(1682489984.304949) can0 18E#3600
(1682489984.309949) can0 18A#2F00
(1682489984.311713) can0 18D#3400
(1682489984.312450) can0 199#6500
(1682489984.321947) can0 18C#2A00
(1682489984.322708) can0 717#05
(1682489984.322725) can0 197#2900
(1682489984.322731) can0 190#3000
(1682489984.326157) can0 198#3D00
(1682489984.327931) can0 192#3800
(1682489984.331344) can0 196#3D00
(1682489984.331361) can0 18F#3A00
(1682489984.332190) can0 194#2300
(1682489984.337424) can0 193#2300
(1682489984.337441) can0 195#1D00
(1682489984.343332) can0 191#2700
(1682489984.348273) can0 18B#4000
(1682489984.350945) can0 19A#7100
(1682489984.354705) can0 18E#3100
(1682489984.359946) can0 18A#2E00
(1682489984.361846) can0 18D#3000
(1682489984.362269) can0 199#6300
(1682489984.371999) can0 18C#2C00
(1682489984.372008) can0 197#2900
(1682489984.373491) can0 190#3000
(1682489984.376335) can0 198#3E00
(1682489984.377942) can0 712#05
(1682489984.377959) can0 192#3800
(1682489984.381435) can0 196#3A00
(1682489984.381453) can0 18F#3A00
(1682489984.382102) can0 194#2200
(1682489984.387452) can0 193#3400
(1682489984.387468) can0 195#1D00
(1682489984.393912) can0 191#2800
(1682489984.398341) can0 18B#3000
(1682489984.400949) can0 19A#6E00
(1682489984.404958) can0 18E#2900
(1682489984.409950) can0 70A#05
(1682489984.409967) can0 18A#2E00
(1682489984.411838) can0 18D#2C00
(1682489984.412481) can0 199#3700
(1682489984.421963) can0 18C#2E00
(1682489984.421979) can0 197#2C00
(1682489984.423435) can0 190#2200
(1682489984.426345) can0 198#3F00
(1682489984.426643) can0 192#3500
(1682489984.431943) can0 196#3900
(1682489984.431960) can0 18F#3900
(1682489984.432165) can0 194#2300
(1682489984.437460) can0 193#3400
(1682489984.437637) can0 195#2200
(1682489984.443950) can0 191#2900
(1682489984.448348) can0 18B#2A00
(1682489984.451008) can0 19A#7C00
(1682489984.454665) can0 18E#2A00
(1682489984.458779) can0 18A#2E00
(1682489984.461954) can0 18D#3600
(1682489984.462718) can0 199#2A00
(1682489984.471949) can0 18C#3000
(1682489984.471966) can0 197#2C00
(1682489984.473470) can0 710#05
(1682489984.473486) can0 190#2500
(1682489984.476275) can0 198#4100
(1682489984.476916) can0 192#3500
(1682489984.481996) can0 18F#3800
(1682489984.482002) can0 196#3700
(1682489984.482249) can0 194#2200
(1682489984.487958) can0 193#2500
(1682489984.487976) can0 195#2200
(1682489984.494001) can0 191#2900
(1682489984.498376) can0 18B#2B00
(1682489984.501336) can0 19A#8400
(1682489984.504957) can0 18E#2900
(1682489984.508849) can0 18A#2D00
(1682489984.511856) can0 18D#2D00
(1682489984.512659) can0 719#05
(1682489984.512677) can0 199#3B00
(1682489984.521962) can0 18C#3200
(1682489984.521979) can0 197#2D00
(1682489984.521984) can0 190#2700
(1682489984.526127) can0 198#4200
(1682489984.527655) can0 192#3300
(1682489984.531956) can0 18F#3700
(1682489984.531973) can0 196#3400
(1682489984.532339) can0 194#2000
(1682489984.537959) can0 193#3500
(1682489984.537976) can0 195#1C00
(1682489984.543948) can0 191#2A00
(1682489984.548944) can0 18B#3400
(1682489984.551473) can0 71A#05
(1682489984.551490) can0 19A#6700
(1682489984.554685) can0 18E#2B00
(1682489984.559112) can0 18A#2E00
(1682489984.561964) can0 199#3100
(1682489984.561981) can0 18D#3600
(1682489984.571724) can0 18C#3400
(1682489984.571911) can0 197#2F00
(1682489984.571931) can0 190#2900
(1682489984.576343) can0 198#4300
(1682489984.577817) can0 192#3200
(1682489984.581631) can0 18F#3600
(1682489984.581648) can0 196#3200
(1682489984.582625) can0 194#2100
(1682489984.587959) can0 193#2200
(1682489984.588119) can0 195#1A00
(1682489984.593959) can0 191#2900
(1682489984.598561) can0 18B#2B00
(1682489984.600852) can0 19A#6700
(1682489984.604865) can0 70E#05
(1682489984.604881) can0 18E#2A00
(1682489984.609252) can0 18A#2D00
(1682489984.611916) can0 199#3000
(1682489984.611933) can0 18D#3300
(1682489984.621974) can0 18C#3600
(1682489984.621991) can0 197#2F00
(1682489984.622015) can0 190#2800
(1682489984.626355) can0 198#4300
(1682489984.627943) can0 192#3100
(1682489984.631971) can0 18F#3500
(1682489984.631988) can0 196#3000
(1682489984.632719) can0 194#1D00
(1682489984.637636) can0 193#2200
(1682489984.638488) can0 195#1C00
(1682489984.644012) can0 711#05
(1682489984.644029) can0 191#2900
(1682489984.648955) can0 18B#2900
(1682489984.650959) can0 19A#8400
(1682489984.653902) can0 18E#2B00
(1682489984.659357) can0 18A#2F00
(1682489984.662141) can0 199#3000
(1682489984.662159) can0 18D#3200
(1682489984.671960) can0 18C#3700
(1682489984.672030) can0 190#2C00
(1682489984.672144) can0 197#2F00
(1682489984.676345) can0 198#4300
(1682489984.677849) can0 192#3000
(1682489984.681719) can0 18F#3400
(1682489984.681911) can0 716#05
(1682489984.681926) can0 196#2E00
(1682489984.682696) can0 194#1D00
(1682489984.687957) can0 193#2200
(1682489984.688712) can0 195#1B00
(1682489984.693285) can0 191#2600
(1682489984.698959) can0 18B#2900
(1682489984.701289) can0 19A#6300
(1682489984.703957) can0 18E#2E00
(1682489984.709460) can0 18A#2E00
(1682489984.712350) can0 199#3300
(1682489984.712367) can0 18D#3300
(1682489984.721964) can0 18C#3B00
(1682489984.722122) can0 190#2B00
(1682489984.722137) can0 197#3000
(1682489984.726252) can0 198#4700
(1682489984.727750) can0 192#2E00
(1682489984.731813) can0 196#2C00
(1682489984.731829) can0 18F#3400
(1682489984.732885) can0 194#1E00
(1682489984.737962) can0 193#2500
(1682489984.738854) can0 195#1C00
(1682489984.743352) can0 191#2700
(1682489984.748965) can0 18B#3700
(1682489984.751472) can0 19A#6F00
(1682489984.753644) can0 18E#2F00
(1682489984.759960) can0 18A#2C00
(1682489984.762337) can0 199#3600
(1682489984.762354) can0 70D#05
(1682489984.762359) can0 18D#3500
(1682489984.771965) can0 18C#3D00
(1682489984.772151) can0 190#2D00
(1682489984.772175) can0 197#3200
(1682489984.776356) can0 198#4700
(1682489984.777995) can0 192#2E00
(1682489984.781959) can0 196#2900
(1682489984.781977) can0 18F#3200
(1682489984.783004) can0 194#1C00
(1682489984.787961) can0 193#2700
(1682489984.788906) can0 195#2600
(1682489984.793357) can0 191#2600
(1682489984.799014) can0 18B#3700
(1682489984.801963) can0 19A#5D00
(1682489984.803960) can0 18E#3000
(1682489984.809962) can0 18A#2E00
(1682489984.811615) can0 18D#3600
(1682489984.812339) can0 199#3700
(1682489984.821713) can0 18C#4000
(1682489984.822493) can0 190#2F00
(1682489984.822510) can0 197#3300
(1682489984.826356) can0 198#4900
(1682489984.828339) can0 192#2B00
(1682489984.831585) can0 196#2800
(1682489984.831766) can0 18F#3200
(1682489984.832845) can0 194#2200
(1682489984.837972) can0 193#2700
(1682489984.839700) can0 195#1900
(1682489984.843997) can0 191#2600
(1682489984.849124) can0 18B#3800
(1682489984.851969) can0 19A#6A00
(1682489984.853960) can0 18E#3200
(1682489984.859860) can0 18A#2C00
(1682489984.861863) can0 18D#3600
(1682489984.862380) can0 199#3700
(1682489984.871966) can0 18C#3600
(1682489984.872255) can0 190#3000
(1682489984.872421) can0 197#3400
(1682489984.876362) can0 198#4B00
(1682489984.878167) can0 192#2900
(1682489984.881712) can0 196#2500
(1682489984.881767) can0 18F#3100
(1682489984.883598) can0 194#3000
(1682489984.888134) can0 193#2500
(1682489984.889135) can0 195#1D00
(1682489984.893538) can0 191#2400
(1682489984.899021) can0 18B#3B00
(1682489984.902561) can0 19A#5900
(1682489984.903951) can0 18E#3300
(1682489984.909968) can0 18A#2C00
(1682489984.912014) can0 18D#3800
(1682489984.912525) can0 199#3100
(1682489984.921973) can0 18C#2F00
(1682489984.922316) can0 190#3200
(1682489984.922493) can0 197#3600
(1682489984.926362) can0 198#4C00
(1682489984.928959) can0 192#2800
(1682489984.931972) can0 196#2400
(1682489984.931989) can0 18F#3000
(1682489984.933684) can0 194#2100
(1682489984.938110) can0 193#2800
(1682489984.939562) can0 195#2200
(1682489984.943559) can0 191#2300
(1682489984.949041) can0 18B#3A00
(1682489984.952449) can0 19A#6600
(1682489984.953731) can0 18E#3500
(1682489984.959870) can0 18A#2C00
(1682489984.962141) can0 18D#3A00
(1682489984.962528) can0 199#3100
(1682489984.971507) can0 18C#2300
(1682489984.972335) can0 190#3300
(1682489984.972593) can0 197#3600
(1682489984.976709) can0 198#4300
(1682489984.978967) can0 192#2700
(1682489984.982134) can0 196#2200
(1682489984.982151) can0 70F#05
(1682489984.982156) can0 18F#3000
(1682489984.983761) can0 194#3000
(1682489984.988365) can0 193#2900
(1682489984.989862) can0 195#1B00
(1682489984.993700) can0 191#2200
(1682489984.999156) can0 18B#3700
(1682489985.003011) can0 19A#5500
(1682489985.003759) can0 18E#3600
(1682489985.010118) can0 18A#2B00
(1682489985.012032) can0 18D#3B00
(1682489985.012774) can0 199#3700
(1682489985.021973) can0 18C#2300
(1682489985.022724) can0 190#3500
(1682489985.022741) can0 197#3600
(1682489985.026139) can0 198#4E00
(1682489985.028970) can0 192#2400
(1682489985.031362) can0 18F#2E00
(1682489985.032159) can0 196#2200
(1682489985.033489) can0 194#3400
(1682489985.038266) can0 193#2A00
(1682489985.039962) can0 195#2100
(1682489985.043979) can0 191#2300
(1682489985.049965) can0 18B#3700
(1682489985.052973) can0 19A#5300
(1682489985.053722) can0 18E#3700
(1682489985.060267) can0 18A#2B00
(1682489985.063004) can0 18D#3C00
(1682489985.063010) can0 199#3300
(1682489985.071966) can0 70C#05
(1682489985.071983) can0 18C#2400
(1682489985.072747) can0 190#3600
(1682489985.072764) can0 197#3700
(1682489985.076795) can0 198#5000
(1682489985.079508) can0 192#2500
(1682489985.081345) can0 18F#2E00
(1682489985.082721) can0 196#2200
(1682489985.083883) can0 194#3600
(1682489985.088356) can0 193#2B00
(1682489985.090022) can0 195#1C00
(1682489985.093963) can0 191#2300
(1682489985.099972) can0 18B#3700
(1682489985.103124) can0 19A#5100
(1682489985.103940) can0 18E#3900
(1682489985.110360) can0 18A#2B00
(1682489985.112547) can0 18D#3F00
(1682489985.112825) can0 199#3600
(1682489985.121025) can0 18C#2300
(1682489985.122621) can0 190#3800
(1682489985.122823) can0 197#3700
(1682489985.126364) can0 198#3600
(1682489985.129363) can0 192#2200
(1682489985.131470) can0 18F#2E00
(1682489985.132551) can0 196#2700
(1682489985.133544) can0 194#1B00
(1682489985.138371) can0 193#2C00
(1682489985.140354) can0 195#2200
(1682489985.144306) can0 191#2200
(1682489985.149978) can0 18B#3700
(1682489985.153366) can0 19A#5000
(1682489985.153674) can0 18E#3900
(1682489985.160372) can0 18A#2B00
(1682489985.162982) can0 18D#4000
(1682489985.162999) can0 199#3700
(1682489985.170979) can0 18C#2800
(1682489985.173015) can0 190#3900
(1682489985.173021) can0 197#3700
(1682489985.176059) can0 198#3600
(1682489985.179162) can0 192#2100
(1682489985.181980) can0 18F#2B00
(1682489985.182721) can0 196#2500
(1682489985.183546) can0 194#3400
(1682489985.188483) can0 713#05
(1682489985.188500) can0 193#2E00
(1682489985.190343) can0 195#1A00
(1682489985.194366) can0 191#2100
(1682489985.199973) can0 18B#3700
(1682489985.203985) can0 19A#4C00
(1682489985.204002) can0 18E#3C00
(1682489985.210592) can0 18A#2C00
(1682489985.212868) can0 18D#4200
(1682489985.213041) can0 199#3900
(1682489985.220981) can0 18C#2700
(1682489985.222876) can0 190#3B00
(1682489985.222919) can0 197#3700
(1682489985.226383) can0 718#05
(1682489985.226400) can0 198#3700
(1682489985.229978) can0 192#2200
(1682489985.231967) can0 18F#2C00
(1682489985.232700) can0 196#2200
(1682489985.233959) can0 194#2F00
(1682489985.237573) can0 193#2F00
(1682489985.240970) can0 195#1700
(1682489985.244366) can0 191#1F00
(1682489985.249986) can0 18B#3600
(1682489985.253993) can0 19A#4B00
(1682489985.254010) can0 18E#3D00
(1682489985.260571) can0 18A#2A00
(1682489985.263544) can0 18D#4200
(1682489985.263561) can0 199#3C00
(1682489985.270980) can0 18C#2900
(1682489985.272974) can0 190#3600
(1682489985.272991) can0 197#3600
(1682489985.275369) can0 198#5400
(1682489985.279971) can0 192#2200
(1682489985.281976) can0 18F#2A00
(1682489985.282813) can0 196#2200
(1682489985.283633) can0 714#05
(1682489985.283650) can0 194#2F00
(1682489985.287979) can0 193#2500
(1682489985.291027) can0 715#05
(1682489985.291033) can0 195#1600
(1682489985.294508) can0 191#1F00
(1682489985.299985) can0 70B#05
(1682489985.300002) can0 18B#3600
(1682489985.303948) can0 18E#3F00
(1682489985.303964) can0 19A#4700
(1682489985.311024) can0 18A#2B00
(1682489985.313378) can0 18D#4400
(1682489985.313395) can0 199#3D00
(1682489985.320984) can0 18C#2A00
(1682489985.322916) can0 190#3E00
(1682489985.323095) can0 717#05
(1682489985.323110) can0 197#3500
(1682489985.325445) can0 198#3C00
(1682489985.329768) can0 192#1F00
(1682489985.331974) can0 18F#2900
(1682489985.332853) can0 194#2F00
(1682489985.332870) can0 196#3700
(1682489985.337985) can0 193#3100
(1682489985.339973) can0 195#1500
(1682489985.344983) can0 191#1E00
(1682489985.349146) can0 18B#3600
(1682489985.353990) can0 18E#4100
(1682489985.354007) can0 19A#8400
(1682489985.360883) can0 18A#2B00
(1682489985.363388) can0 18D#4100
(1682489985.363406) can0 199#4000
(1682489985.370815) can0 18C#2D00
(1682489985.372926) can0 197#3500
(1682489985.372942) can0 190#3F00
(1682489985.375812) can0 198#3F00
(1682489985.380023) can0 712#05
(1682489985.380033) can0 192#1E00
(1682489985.381566) can0 18F#2800
(1682489985.382906) can0 194#3100
(1682489985.382923) can0 196#3600
(1682489985.387977) can0 193#3200
(1682489985.389983) can0 195#1500
(1682489985.394989) can0 191#1D00
(1682489985.399372) can0 18B#3700
(1682489985.403990) can0 18E#4200
(1682489985.404281) can0 19A#4300
(1682489985.410889) can0 70A#05
(1682489985.410906) can0 18A#2A00
(1682489985.413576) can0 18D#3E00
(1682489985.413593) can0 199#4300
(1682489985.420985) can0 18C#2F00
(1682489985.422987) can0 197#3300
(1682489985.423003) can0 190#4200
(1682489985.425375) can0 198#3600
(1682489985.429373) can0 192#3600
(1682489985.431644) can0 18F#2800
(1682489985.433121) can0 194#2D00
(1682489985.433138) can0 196#3600
(1682489985.437775) can0 193#2300
(1682489985.440367) can0 195#3900
(1682489985.444978) can0 191#1D00
(1682489985.449373) can0 18B#3500
(1682489985.454057) can0 18E#4400
(1682489985.454814) can0 19A#4200
(1682489985.460044) can0 18A#2B00
(1682489985.463998) can0 18D#3C00
(1682489985.464015) can0 199#4300
(1682489985.470990) can0 18C#3000
(1682489985.472984) can0 197#3200
(1682489985.473001) can0 710#05
(1682489985.473006) can0 190#4300
(1682489985.475817) can0 198#3D00
(1682489985.479390) can0 192#1B00
(1682489985.481806) can0 18F#2800
(1682489985.483574) can0 194#2D00
(1682489985.483592) can0 196#4000
(1682489985.487878) can0 193#3400
(1682489985.490279) can0 195#2300
(1682489985.494968) can0 191#1C00
(1682489985.499869) can0 18B#4800
(1682489985.504063) can0 18E#4600
(1682489985.505012) can0 19A#4000
(1682489985.510636) can0 18A#2A00
(1682489985.513752) can0 18D#3A00
(1682489985.513769) can0 719#05
(1682489985.513774) can0 199#4100
(1682489985.520981) can0 18C#3100
(1682489985.522632) can0 190#4400
(1682489985.522649) can0 197#2F00
(1682489985.525367) can0 198#2F00
(1682489985.529986) can0 192#4200
(1682489985.531728) can0 18F#2700
(1682489985.533666) can0 194#2C00
(1682489985.533682) can0 196#3B00
(1682489985.537991) can0 193#3600
(1682489985.540580) can0 195#1400
(1682489985.545060) can0 191#1C00
(1682489985.549980) can0 18B#3700
(1682489985.554048) can0 18E#3600
(1682489985.555301) can0 71A#05
(1682489985.555317) can0 19A#3D00
(1682489985.560378) can0 18A#2B00
(1682489985.563050) can0 199#4000
(1682489985.563945) can0 18D#3800
(1682489985.570690) can0 18C#3200
(1682489985.572307) can0 190#4600
(1682489985.572556) can0 197#2F00
(1682489985.575835) can0 198#2200
(1682489985.579995) can0 192#4000
(1682489985.581995) can0 18F#2600
(1682489985.583766) can0 194#3200
(1682489985.583783) can0 196#3600
(1682489985.588053) can0 193#3700
(1682489985.591034) can0 195#3800
(1682489985.595622) can0 191#1C00
(1682489985.599539) can0 18B#4A00
(1682489985.604068) can0 70E#05
(1682489985.604084) can0 18E#3600
(1682489985.604238) can0 19A#4A00
(1682489985.610112) can0 18A#2A00
(1682489985.613321) can0 199#3F00
(1682489985.614076) can0 18D#3600
(1682489985.620810) can0 18C#3000
(1682489985.622739) can0 190#3B00
(1682489985.622756) can0 197#2E00
(1682489985.625474) can0 198#3000
(1682489985.629889) can0 192#3D00
(1682489985.631955) can0 18F#2600
(1682489985.633850) can0 194#2A00
(1682489985.633867) can0 196#3C00
(1682489985.638062) can0 193#3800
(1682489985.640995) can0 195#0F00
(1682489985.645394) can0 711#05
(1682489985.645411) can0 191#1A00
(1682489985.649996) can0 18B#3700
(1682489985.653191) can0 18E#4A00
(1682489985.654700) can0 19A#3800
(1682489985.660492) can0 18A#2B00
(1682489985.663379) can0 199#3D00
(1682489985.664267) can0 18D#3500
(1682489985.670990) can0 18C#3600
(1682489985.672668) can0 190#4A00
(1682489985.672685) can0 197#2D00
(1682489985.675374) can0 198#2200
(1682489985.680163) can0 192#1500
(1682489985.682112) can0 18F#2300
(1682489985.683966) can0 194#3000
(1682489985.683972) can0 716#05
(1682489985.683978) can0 196#3300
(1682489985.688318) can0 193#3C00
(1682489985.690999) can0 195#3000
(1682489985.694395) can0 191#1C00
(1682489985.699895) can0 18B#3700
(1682489985.703089) can0 18E#3900
(1682489985.704887) can0 19A#7900
(1682489985.710990) can0 18A#2900
(1682489985.713473) can0 199#3B00
(1682489985.714211) can0 18D#3200
(1682489985.720814) can0 18C#3800
(1682489985.722813) can0 190#4600
(1682489985.722830) can0 197#2C00
(1682489985.725174) can0 198#2400
(1682489985.730386) can0 192#3800
(1682489985.732302) can0 18F#2200
(1682489985.733746) can0 196#3800
(1682489985.733752) can0 194#3400
(1682489985.738116) can0 193#3900
(1682489985.741041) can0 195#1500
(1682489985.744980) can0 191#2800
(1682489985.749990) can0 18B#3600
(1682489985.753161) can0 18E#3900
(1682489985.755390) can0 19A#3700
(1682489985.761004) can0 18A#2900
(1682489985.763504) can0 199#3A00
(1682489985.764982) can0 70D#05
(1682489985.764999) can0 18D#3000
(1682489985.770898) can0 18C#2300
(1682489985.772775) can0 190#4E00
(1682489985.772816) can0 197#2B00
(1682489985.775301) can0 198#2700
(1682489985.780151) can0 192#3600
(1682489985.782034) can0 18F#2200
(1682489985.783862) can0 196#3600
(1682489985.783879) can0 194#3700
(1682489985.788290) can0 193#3A00
(1682489985.791296) can0 195#1500
(1682489985.794898) can0 191#1700
(1682489985.799997) can0 18B#4E00
(1682489985.803609) can0 18E#3C00
(1682489985.805473) can0 19A#3700
(1682489985.810822) can0 18A#2900
(1682489985.813613) can0 199#3800
(1682489985.813631) can0 18D#3000
(1682489985.820998) can0 18C#2300
(1682489985.822926) can0 190#4400
(1682489985.822943) can0 197#2A00
(1682489985.825495) can0 198#2700
(1682489985.830998) can0 192#3300
(1682489985.832788) can0 18F#2200
(1682489985.833572) can0 196#3600
(1682489985.833588) can0 194#3700
(1682489985.838070) can0 193#3A00
(1682489985.841962) can0 195#3800
(1682489985.844998) can0 191#1800
(1682489985.850164) can0 18B#4F00
(1682489985.853320) can0 18E#3E00
(1682489985.855997) can0 19A#8400
(1682489985.860839) can0 18A#2800
(1682489985.863579) can0 199#3700
(1682489985.863592) can0 18D#3000
(1682489985.870740) can0 18C#2400
(1682489985.872586) can0 190#5200
(1682489985.873208) can0 197#2900
(1682489985.875904) can0 198#2A00
(1682489985.881001) can0 192#3100
(1682489985.882694) can0 18F#2200
(1682489985.883890) can0 196#3400
(1682489985.883906) can0 194#2F00
(1682489985.888395) can0 193#3A00
(1682489985.892001) can0 195#1500
(1682489985.895000) can0 191#1600
(1682489985.900403) can0 18B#5000
(1682489985.903323) can0 18E#2A00
(1682489985.905998) can0 19A#6900
(1682489985.910812) can0 18A#2900
(1682489985.913734) can0 199#3700
(1682489985.913751) can0 18D#3A00
(1682489985.920865) can0 18C#3A00
(1682489985.922568) can0 190#4400
(1682489985.923450) can0 197#2800
(1682489985.925536) can0 198#2B00
(1682489985.931000) can0 192#2F00
(1682489985.932849) can0 18F#2200
(1682489985.933866) can0 196#3100
(1682489985.933883) can0 194#2F00
(1682489985.938248) can0 193#3A00
(1682489985.941737) can0 195#3800
(1682489985.944881) can0 191#3100
(1682489985.950145) can0 18B#5100
(1682489985.953279) can0 18E#3600
(1682489985.956277) can0 19A#6600
(1682489985.961281) can0 18A#2800
(1682489985.963832) can0 199#3700
(1682489985.963872) can0 18D#2900
(1682489985.970755) can0 18C#2600
(1682489985.972595) can0 190#5300
(1682489985.973465) can0 197#2700
(1682489985.975534) can0 198#2B00
(1682489985.980908) can0 192#2C00
(1682489985.982210) can0 70F#05
(1682489985.982227) can0 18F#2200
(1682489985.983799) can0 194#3000
(1682489985.983816) can0 196#2F00
(1682489985.988999) can0 193#3A00
(1682489985.992011) can0 195#3800
(1682489985.995557) can0 191#1500
(1682489986.000395) can0 18B#3000
(1682489986.003389) can0 18E#2E00
(1682489986.006173) can0 19A#6000
(1682489986.011392) can0 18A#2900
(1682489986.014001) can0 199#3700
(1682489986.014018) can0 18D#3600
(1682489986.021052) can0 18C#2800
(1682489986.023003) can0 190#4100
(1682489986.023295) can0 197#2500
(1682489986.025205) can0 198#3000
(1682489986.031702) can0 192#2900
(1682489986.031719) can0 18F#2200
(1682489986.034013) can0 194#3200
(1682489986.034030) can0 196#3000
(1682489986.038649) can0 193#3A00
(1682489986.042335) can0 195#3100
(1682489986.045394) can0 191#2F00
(1682489986.050994) can0 18B#5300
(1682489986.053706) can0 18E#3000
(1682489986.056905) can0 19A#5C00
(1682489986.061287) can0 18A#2900
(1682489986.064243) can0 199#3700
(1682489986.064261) can0 18D#3300
(1682489986.070904) can0 70C#05
(1682489986.070921) can0 18C#2B00
(1682489986.072577) can0 190#3600
(1682489986.073581) can0 197#2400
(1682489986.075494) can0 198#3000
(1682489986.081868) can0 192#2700
(1682489986.081885) can0 18F#1E00
(1682489986.084069) can0 194#3400
(1682489986.084086) can0 196#2E00
(1682489986.088594) can0 193#3B00
(1682489986.092405) can0 195#3800
(1682489986.095779) can0 191#2F00
(1682489986.101006) can0 18B#3000
(1682489986.103396) can0 18E#3200
(1682489986.106916) can0 19A#5900
(1682489986.111999) can0 18A#2900
(1682489986.114124) can0 199#3100
(1682489986.114380) can0 18D#3200
(1682489986.120016) can0 18C#2C00
(1682489986.123008) can0 190#3600
(1682489986.123740) can0 197#2200
(1682489986.125559) can0 198#3300
(1682489986.131914) can0 192#2400
(1682489986.131931) can0 18F#2200
(1682489986.134112) can0 194#3100
(1682489986.134129) can0 196#3300
(1682489986.138724) can0 193#3A00
(1682489986.142286) can0 195#3900
(1682489986.145407) can0 191#3600
(1682489986.151008) can0 18B#5500
(1682489986.153393) can0 18E#3500
(1682489986.157595) can0 19A#5600
(1682489986.162011) can0 18A#2900
(1682489986.164300) can0 199#3E00
(1682489986.164516) can0 18D#3000
(1682489986.170016) can0 18C#2E00
(1682489986.173007) can0 190#3600
(1682489986.173737) can0 197#2200
(1682489986.175942) can0 198#2900
(1682489986.182017) can0 18F#3B00
(1682489986.182034) can0 192#2200
(1682489986.184411) can0 194#3400
(1682489986.184427) can0 196#2B00
(1682489986.189024) can0 713#05
(1682489986.189041) can0 193#3700
(1682489986.193013) can0 195#2F00
(1682489986.196007) can0 191#2D00
(1682489986.201010) can0 18B#5700
(1682489986.203407) can0 18E#3600
(1682489986.207404) can0 19A#5300
(1682489986.211730) can0 18A#2800
(1682489986.214399) can0 199#3000
(1682489986.214700) can0 18D#2F00
(1682489986.219814) can0 18C#2E00
(1682489986.222811) can0 190#3600
(1682489986.223826) can0 197#2100
(1682489986.225919) can0 718#05
(1682489986.225936) can0 198#2E00
(1682489986.232011) can0 18F#3E00
(1682489986.232027) can0 192#2000
(1682489986.234403) can0 194#3800
(1682489986.234420) can0 196#3000
(1682489986.238019) can0 193#3B00
(1682489986.242919) can0 195#3500
(1682489986.245918) can0 191#3600
(1682489986.250916) can0 18B#5700
(1682489986.252973) can0 18E#3900
(1682489986.258055) can0 19A#7300
(1682489986.262061) can0 18A#2800
(1682489986.264600) can0 199#3B00
(1682489986.264810) can0 18D#5500
(1682489986.270016) can0 18C#3300
(1682489986.273014) can0 190#3800
(1682489986.273824) can0 197#2200
(1682489986.274343) can0 198#3600
(1682489986.282021) can0 18F#4300
(1682489986.282038) can0 192#1E00
(1682489986.284420) can0 714#05
(1682489986.284437) can0 194#3100
(1682489986.284603) can0 196#3200
(1682489986.287839) can0 193#3B00
(1682489986.293026) can0 715#05
(1682489986.293043) can0 195#2F00
(1682489986.296022) can0 191#2A00
(1682489986.300953) can0 70B#05
(1682489986.300970) can0 18B#5800
(1682489986.303414) can0 18E#3B00
(1682489986.308022) can0 19A#7100
(1682489986.312020) can0 18A#2800
(1682489986.314629) can0 199#3900
(1682489986.314975) can0 18D#3700
(1682489986.319863) can0 18C#3000
(1682489986.323015) can0 190#3800
(1682489986.323955) can0 717#05
(1682489986.323960) can0 197#2300
(1682489986.324257) can0 198#3000
(1682489986.332022) can0 18F#4100
(1682489986.332039) can0 192#1B00
(1682489986.333539) can0 194#3100
(1682489986.335002) can0 196#3600
(1682489986.337992) can0 193#3C00
(1682489986.342116) can0 195#3300
(1682489986.346018) can0 191#0F00
(1682489986.350174) can0 18B#5A00
(1682489986.353405) can0 18E#3000
(1682489986.358173) can0 19A#6F00
(1682489986.362081) can0 18A#2A00
(1682489986.365017) can0 199#3700
(1682489986.365088) can0 18D#6600
(1682489986.369923) can0 18C#3300
(1682489986.372924) can0 190#3A00
(1682489986.372941) can0 197#1E00
(1682489986.374920) can0 198#3000
(1682489986.382019) can0 18F#4200
(1682489986.382053) can0 712#05
(1682489986.382188) can0 192#3200
(1682489986.384002) can0 194#3100
(1682489986.385594) can0 196#3800
(1682489986.388169) can0 193#1F00
(1682489986.392088) can0 195#3600
(1682489986.396023) can0 191#0E00
(1682489986.400408) can0 18B#5C00
(1682489986.403095) can0 18E#3300
(1682489986.408408) can0 19A#6C00
(1682489986.412213) can0 70A#05
(1682489986.412230) can0 18A#2A00
(1682489986.414662) can0 199#1D00
(1682489986.415532) can0 18D#6700
(1682489986.419920) can0 18C#3600
(1682489986.422931) can0 190#3B00
(1682489986.422947) can0 197#1D00
(1682489986.424873) can0 198#3100
(1682489986.432024) can0 192#3000
(1682489986.432041) can0 18F#4000
(1682489986.433913) can0 194#3400
(1682489986.435756) can0 196#3600
(1682489986.438061) can0 193#1D00
(1682489986.442286) can0 195#3600
(1682489986.446587) can0 191#2A00
(1682489986.450417) can0 18B#5D00
(1682489986.453484) can0 18E#3400
(1682489986.459023) can0 19A#6900
(1682489986.461772) can0 18A#2700
(1682489986.465023) can0 199#1D00
(1682489986.465753) can0 18D#5300
(1682489986.469849) can0 18C#3A00
(1682489986.472884) can0 710#05
(1682489986.472901) can0 190#3E00
(1682489986.472960) can0 197#1C00
(1682489986.474631) can0 198#3300
(1682489986.482029) can0 192#3000
(1682489986.482046) can0 18F#4100
(1682489986.484011) can0 194#3000
(1682489986.485924) can0 196#3600
(1682489986.488407) can0 193#3C00
(1682489986.493072) can0 195#2F00
(1682489986.496411) can0 191#3A00
(1682489986.500320) can0 18B#5D00
(1682489986.503313) can0 18E#3700
(1682489986.509020) can0 19A#6800
(1682489986.511890) can0 18A#2600
(1682489986.515101) can0 719#05
(1682489986.515118) can0 199#1D00
(1682489986.515888) can0 18D#5200
(1682489986.520024) can0 18C#2300
(1682489986.522010) can0 190#3E00
(1682489986.523818) can0 197#3600
(1682489986.524381) can0 198#3500
(1682489986.532073) can0 192#3000
(1682489986.532079) can0 18F#4000
(1682489986.533823) can0 194#3600
(1682489986.536012) can0 196#3600
(1682489986.538107) can0 193#2100
(1682489986.543025) can0 195#3100
(1682489986.546411) can0 191#2B00
(1682489986.550913) can0 18B#5E00
(1682489986.553355) can0 18E#3900
(1682489986.558981) can0 71A#05
(1682489986.558998) can0 19A#6600
(1682489986.562022) can0 18A#3700
(1682489986.564721) can0 199#1E00
(1682489986.565845) can0 18D#5400
(1682489986.569805) can0 18C#2700
(1682489986.572065) can0 190#3000
(1682489986.573884) can0 197#3600
(1682489986.574619) can0 198#3600
(1682489986.582088) can0 192#3F00
(1682489986.582105) can0 18F#3F00
(1682489986.583917) can0 194#2F00
(1682489986.585969) can0 196#3300
(1682489986.588484) can0 193#2300
(1682489986.593029) can0 195#2A00
(1682489986.596532) can0 191#2D00
(1682489986.601027) can0 18B#5F00
(1682489986.603418) can0 70E#05
(1682489986.603435) can0 18E#3B00
(1682489986.608760) can0 19A#6300
(1682489986.612072) can0 18A#2800
(1682489986.614419) can0 199#2000
(1682489986.615994) can0 18D#5100
(1682489986.620071) can0 18C#2900
(1682489986.622068) can0 190#2F00
(1682489986.623964) can0 197#3600
(1682489986.624339) can0 198#3700
(1682489986.632429) can0 192#3700
(1682489986.632447) can0 18F#4100
(1682489986.633914) can0 194#2F00
(1682489986.635966) can0 196#2F00
(1682489986.638232) can0 193#2400
(1682489986.643193) can0 195#2C00
(1682489986.647027) can0 711#05
(1682489986.647044) can0 191#3600
(1682489986.651030) can0 18B#6100
(1682489986.652802) can0 18E#3D00
(1682489986.658325) can0 19A#6100
(1682489986.662030) can0 18A#2600
(1682489986.664524) can0 199#2100
(1682489986.666115) can0 18D#6F00
(1682489986.670035) can0 18C#2C00
(1682489986.672064) can0 190#3000
(1682489986.673608) can0 197#3600
(1682489986.674492) can0 198#3900
(1682489986.682086) can0 18F#3F00
(1682489986.682092) can0 192#3A00
(1682489986.684092) can0 194#3000
(1682489986.685873) can0 716#05
(1682489986.685891) can0 196#3700
(1682489986.688986) can0 193#2200
(1682489986.693324) can0 195#3200
(1682489986.695617) can0 191#3B00
(1682489986.701027) can0 18B#6200
(1682489986.702452) can0 18E#4100
(1682489986.709022) can0 19A#5E00
(1682489986.712033) can0 18A#2700
(1682489986.715025) can0 199#2300
(1682489986.716498) can0 18D#5000
(1682489986.719923) can0 18C#3000
(1682489986.722324) can0 190#3000
(1682489986.724013) can0 197#3600
(1682489986.724351) can0 198#3600
(1682489986.732438) can0 18F#3E00
(1682489986.732455) can0 192#3700
(1682489986.734344) can0 194#2F00
(1682489986.735111) can0 196#3700
(1682489986.738683) can0 193#2700
(1682489986.743564) can0 195#2A00
(1682489986.746026) can0 191#3600
(1682489986.751033) can0 18B#6300
(1682489986.752930) can0 18E#4400
(1682489986.759017) can0 19A#5C00
(1682489986.762032) can0 18A#2800
(1682489986.764619) can0 199#2500
(1682489986.766301) can0 70D#05
(1682489986.766317) can0 18D#7300
(1682489986.769813) can0 18C#3300
(1682489986.772753) can0 190#3100
(1682489986.773729) can0 197#3600
(1682489986.774623) can0 198#3600
(1682489986.782438) can0 18F#3F00
(1682489986.782454) can0 192#3500
(1682489986.784408) can0 194#2E00
(1682489986.785423) can0 196#3600
(1682489986.788930) can0 193#2600
(1682489986.793937) can0 195#3300
(1682489986.795928) can0 191#2A00
(1682489986.800903) can0 18B#6400
(1682489986.802510) can0 18E#4600
(1682489986.809426) can0 19A#5900
(1682489986.812081) can0 18A#2600
(1682489986.814736) can0 199#2700
(1682489986.815905) can0 18D#4D00
(1682489986.819936) can0 18C#3700
(1682489986.822328) can0 190#3300
(1682489986.824020) can0 197#3600
(1682489986.824355) can0 198#3E00
(1682489986.832257) can0 18F#4000
(1682489986.832973) can0 192#4900
(1682489986.834805) can0 194#2F00
(1682489986.835555) can0 196#3600
(1682489986.838935) can0 193#2800
(1682489986.843939) can0 195#3100
(1682489986.845933) can0 191#3600
(1682489986.851587) can0 18B#6600
(1682489986.852452) can0 18E#4800
(1682489986.859533) can0 19A#5700
(1682489986.862001) can0 18A#2600
(1682489986.865036) can0 199#2900
(1682489986.865777) can0 18D#4D00
(1682489986.869870) can0 18C#3A00
(1682489986.872456) can0 190#3400
(1682489986.873795) can0 197#2200
(1682489986.874548) can0 198#3600
(1682489986.883030) can0 18F#3D00
(1682489986.883046) can0 192#3600
(1682489986.884925) can0 194#3600
(1682489986.885656) can0 196#4000
(1682489986.889033) can0 193#2900
(1682489986.894042) can0 195#2D00
